# HZ S RI R 50
50000 0.08263112 -0.017416916
99504 0.077995816 -0.034189852
149008 0.069949176 -0.04853482
198512 0.060076416 -0.06041868
248016 0.049151876 -0.0697826
297520 0.037877068 -0.076707864
347024 0.026765654 -0.081501296
396528 0.016145244 -0.084483832
446032 0.006251298 -0.086039136
495536 -0.00284817 -0.086483568
545040 -0.011072329 -0.08602048
594544 -0.01844274 -0.084980488
644048 -0.025110444 -0.083465472
693552 -0.031028228 -0.081661928
743056 -0.036315856 -0.079645544
792560 -0.041027664 -0.077534264
842064 -0.04522782 -0.075335856
891568 -0.048982908 -0.07309684
941072 -0.05232762 -0.070870152
990576 -0.055356148 -0.068721
1040080 -0.058052912 -0.066586004
1089584 -0.060500772 -0.06452518
1139088 -0.062702744 -0.062524332
1188592 -0.064663844 -0.060564016
1238096 -0.066523752 -0.05871178
1287600 -0.06812144 -0.056920924
1337104 -0.069615056 -0.055169552
1386608 -0.071004008 -0.053542996
1436112 -0.07222084 -0.051926644
1485616 -0.073354608 -0.050395372
1535120 -0.074425288 -0.04891888
1584624 -0.07539748 -0.047455052
1634128 -0.076262608 -0.046099348
1683632 -0.077066008 -0.04480574
1733136 -0.077844136 -0.043598076
1782640 -0.078534952 -0.0423802
1832144 -0.079189224 -0.041194976
1881648 -0.079800152 -0.040079736
1931152 -0.080364656 -0.039030664
1980656 -0.080895512 -0.037992152
2030160 -0.0814036 -0.036966564
2079664 -0.081863288 -0.036018716
2129168 -0.08230396 -0.0350885
2178672 -0.082677032 -0.03412422
2228176 -0.083038632 -0.033317574
2277680 -0.083383688 -0.032437968
2327184 -0.083719992 -0.031626816
2376688 -0.084062528 -0.030822478
2426192 -0.08433112 -0.030051098
2475696 -0.084617432 -0.029304524
2525200 -0.08488752 -0.028577372
2574704 -0.08512884 -0.027884754
2624208 -0.085373664 -0.027180208
2673712 -0.085579872 -0.02651178
2723216 -0.0857814 -0.02589874
2772720 -0.08598076 -0.02525019
2822224 -0.08618664 -0.024665678
2871728 -0.086353464 -0.024027812
2921232 -0.086513208 -0.023448226
2970736 -0.086707184 -0.02289989
3020240 -0.086826808 -0.022375538
3069744 -0.086981152 -0.021781256
3119248 -0.087112536 -0.021276406
3168752 -0.08725156 -0.020746372
3218256 -0.087363072 -0.020244862
3267760 -0.087530736 -0.019771462
3317264 -0.087586712 -0.01927648
3366768 -0.087710992 -0.018800724
3416272 -0.087806744 -0.018314842
3465776 -0.087912048 -0.017920412
3515280 -0.088013 -0.017456072
3564784 -0.08809312 -0.017002068
3614288 -0.088164312 -0.01659332
3663792 -0.088284608 -0.016195819
3713296 -0.088335912 -0.015774971
3762800 -0.08840184 -0.015346364
3812304 -0.08848936 -0.014987818
3861808 -0.08855452 -0.014550684
3911312 -0.088616288 -0.014192843
3960816 -0.088673416 -0.013838507
4010320 -0.08873268 -0.013473194
4059824 -0.088809832 -0.013113064
4109328 -0.088851528 -0.012761459
4158832 -0.088894584 -0.012414295
4208336 -0.088945048 -0.01202507
4257840 -0.08898256 -0.011741869
4307344 -0.089049736 -0.011405149
4356848 -0.089069312 -0.011043748
4406352 -0.089112736 -0.010735355
4455856 -0.08917116 -0.010433334
4505360 -0.089200128 -0.010099534
4554864 -0.089202744 -0.00978031
4604368 -0.089238592 -0.009492655
4653872 -0.089308968 -0.009212039
4703376 -0.08931756 -0.008896923
4752880 -0.089358704 -0.00862234
4802384 -0.089383208 -0.008314198
4851888 -0.089391496 -0.008045526
4901392 -0.089408016 -0.007746764
4950896 -0.089460032 -0.007500483
5000400 -0.089495592 -0.007192536
5049904 -0.089516584 -0.006924912
5099408 -0.089531656 -0.006695701
5148912 -0.08955428 -0.006382189
5198416 -0.089561312 -0.006143491
5247920 -0.089598952 -0.005901297
5297424 -0.089569208 -0.005611635
5346928 -0.08960496 -0.005376858
5396432 -0.089618336 -0.005136947
5445936 -0.089634632 -0.004843465
5495440 -0.0896498 -0.004622321
5544944 -0.089638592 -0.00441225
5594448 -0.08964524 -0.004167511
5643952 -0.089667912 -0.003928578
5693456 -0.089679992 -0.003710127
5742960 -0.089717496 -0.003469662
5792464 -0.089727864 -0.003219078
5841968 -0.089721552 -0.00300759
5891472 -0.089739504 -0.00278579
5940976 -0.089746032 -0.002586964
5990480 -0.089778944 -0.002378359
6039984 -0.089760944 -0.002140134
6089488 -0.089808552 -0.001952531
6138992 -0.089846816 -0.001784787
6188496 -0.089913512 -0.001660268
6238000 -0.090003072 -0.001487381
6287504 -0.090095104 -0.001338224
6337008 -0.090193216 -0.001140012
6386512 -0.090248648 -0.000906579
6436016 -0.090210384 -0.000625817
6485520 -0.09019308 -0.000372486
6535024 -0.09010344 -9.1097e-05
6584528 -0.090074104 0.000138602
6634032 -0.089995856 0.000369942
6683536 -0.089920672 0.000572057
6733040 -0.08991912 0.000757452
6782544 -0.089867736 0.000962608
6832048 -0.089859416 0.001160735
6881552 -0.08985204 0.001358701
6931056 -0.089848664 0.001547272
6980560 -0.08981232 0.001737284
7030064 -0.08980364 0.001912568
7079568 -0.089797136 0.002097885
7129072 -0.089771392 0.002329956
7178576 -0.089782768 0.002466554
7228080 -0.089777304 0.002671824
7277584 -0.08974408 0.002832014
7327088 -0.089737352 0.003063778
7376592 -0.08972528 0.003212308
7426096 -0.089701448 0.003403061
7475600 -0.089729888 0.003545773
7525104 -0.089716776 0.003747689
7574608 -0.089689856 0.00390825
7624112 -0.089664344 0.004114281
7673616 -0.089651096 0.004294622
7723120 -0.089643288 0.004455148
7772624 -0.08961816 0.004629174
7822128 -0.089621168 0.004797522
7871632 -0.089599928 0.004936539
7921136 -0.089619216 0.005115617
7970640 -0.089597608 0.005288414
8020144 -0.089559072 0.00545774
8069648 -0.089563432 0.00560653
8119152 -0.089576512 0.00580237
8168656 -0.08951788 0.005958125
8218160 -0.089530952 0.006100379
8267664 -0.089503384 0.006288344
8317168 -0.089503248 0.006434697
8366672 -0.089465048 0.00662463
8416176 -0.08947272 0.006734575
8465680 -0.089471776 0.00692636
8515184 -0.08946424 0.007056751
8564688 -0.089436504 0.007231823
8614192 -0.089409856 0.007390591
8663696 -0.089398816 0.007513636
8713200 -0.089391608 0.007700507
8762704 -0.089381296 0.007846331
8812208 -0.089348672 0.008035264
8861712 -0.08931652 0.008173335
8911216 -0.089303624 0.00834585
8960720 -0.089261136 0.008472642
9010224 -0.089246632 0.008654465
9059728 -0.08924932 0.008792862
9109232 -0.089240504 0.008933706
9158736 -0.089232792 0.00907247
9208240 -0.089209184 0.009209485
9257744 -0.089186864 0.009356248
9307248 -0.089170232 0.009522062
9356752 -0.089130424 0.009668075
9406256 -0.089129608 0.009833564
9455760 -0.089103304 0.009940592
9505264 -0.0890962 0.010105901
9554768 -0.089085904 0.010241508
9604272 -0.089056 0.01039731
9653776 -0.089021952 0.010560935
9703280 -0.089010032 0.010661815
9752784 -0.088996088 0.01081754
9802288 -0.088951088 0.010976804
9851792 -0.08893504 0.011106496
9901296 -0.088971032 0.011226985
9950800 -0.088910248 0.011407006
10000304 -0.088877568 0.011525444
10049808 -0.088882928 0.011670614
10099312 -0.088842696 0.011807598
10148816 -0.088861288 0.011937777
10198320 -0.08878924 0.01208858
10247824 -0.088806616 0.012187384
10297328 -0.088774016 0.012373474
10346832 -0.0887756 0.012500565
10396336 -0.088742744 0.012650328
10445840 -0.08871608 0.012769858
10495344 -0.088679824 0.012928203
10544848 -0.088666376 0.013035399
10594352 -0.088641128 0.013182923
10643856 -0.088608112 0.0133087
10693360 -0.088576896 0.013427401
10742864 -0.088565968 0.013576734
10792368 -0.088552344 0.01371423
10841872 -0.088531528 0.013878189
10891376 -0.088499088 0.014006281
10940880 -0.088486896 0.014118869
10990384 -0.08843696 0.014233638
11039888 -0.08842 0.014366512
11089392 -0.088431992 0.014507977
11138896 -0.088372208 0.014678687
11188400 -0.088359232 0.014745417
11237904 -0.088334776 0.014883745
11287408 -0.08830996 0.015029727
11336912 -0.088304584 0.01518187
11386416 -0.088276568 0.015294487
11435920 -0.088213904 0.015426859
11485424 -0.088198176 0.015551409
11534928 -0.088194416 0.015655948
11584432 -0.088138504 0.015808083
11633936 -0.088099168 0.015931703
11683440 -0.08807284 0.016045598
11732944 -0.088057304 0.016197825
11782448 -0.0880506 0.016341563
11831952 -0.088010656 0.016457817
11881456 -0.08796852 0.016562302
11930960 -0.087952096 0.016684145
11980464 -0.087911864 0.016779018
12029968 -0.087899816 0.016906794
12079472 -0.087894776 0.017074982
12128976 -0.087862096 0.017206746
12178480 -0.087842816 0.01730523
12227984 -0.08780432 0.017425722
12277488 -0.087779496 0.017575268
12326992 -0.08775344 0.017674232
12376496 -0.087723816 0.01782477
12426000 -0.08769172 0.017911708
12475504 -0.087682472 0.018051926
12525008 -0.087649712 0.018178222
12574512 -0.087625768 0.018293626
12624016 -0.08758116 0.018433296
12673520 -0.087553944 0.018526124
12723024 -0.087539416 0.0186458
12772528 -0.087503576 0.018773984
12822032 -0.087465104 0.018898242
12871536 -0.0874408 0.019043108
12921040 -0.087420192 0.019162328
12970544 -0.087386048 0.019281598
13020048 -0.08733328 0.019369138
13069552 -0.087301272 0.01948911
13119056 -0.087259232 0.019624092
13168560 -0.087289128 0.01972642
13218064 -0.087226848 0.01984609
13267568 -0.087189824 0.019990312
13317072 -0.087176128 0.02006888
13366576 -0.087122392 0.020196098
13416080 -0.087166256 0.020318808
13465584 -0.08707592 0.020460264
13515088 -0.087041024 0.020565356
13564592 -0.08700948 0.020673668
13614096 -0.08699012 0.020777746
13663600 -0.086953264 0.020901866
13713104 -0.086903904 0.021032756
13762608 -0.08690224 0.02112524
13812112 -0.086860224 0.021264996
13861616 -0.08682156 0.021368314
13911120 -0.08681472 0.02148896
13960624 -0.086765936 0.021602832
14010128 -0.086723136 0.021734772
14059632 -0.086708056 0.021831648
14109136 -0.08666276 0.02193971
14158640 -0.086628784 0.022055524
14208144 -0.086587648 0.022187242
14257648 -0.086570144 0.022316874
14307152 -0.086530688 0.022400682
14356656 -0.086503872 0.022485736
14406160 -0.086494 0.022637874
14455664 -0.086446192 0.022748886
14505168 -0.08638888 0.022843248
14554672 -0.086370824 0.022963392
14604176 -0.0863362 0.023078256
14653680 -0.086335312 0.023177218
14703184 -0.086277304 0.023329792
14752688 -0.086240944 0.023423378
14802192 -0.08621136 0.02353749
14851696 -0.086191232 0.023651232
14901200 -0.086137208 0.023735538
14950704 -0.086118216 0.023863188
15000208 -0.086071816 0.023955888
15049712 -0.086036824 0.024100806
15099216 -0.086002856 0.024202582
15148720 -0.086006328 0.024300738
15198224 -0.08591576 0.024441476
15247728 -0.085885496 0.024542824
15297232 -0.085852168 0.024648158
15346736 -0.085821864 0.024749568
15396240 -0.085799472 0.024833826
15445744 -0.085765 0.02496792
15495248 -0.085739888 0.025076124
15544752 -0.085664384 0.025205072
15594256 -0.08564512 0.025302958
15643760 -0.085608776 0.025379672
15693264 -0.085582448 0.025516002
15742768 -0.085541104 0.025604962
15792272 -0.08551972 0.02571149
15841776 -0.08547676 0.025866204
15891280 -0.085423104 0.025947244
15940784 -0.085396024 0.026031068
15990288 -0.085362104 0.026171122
16039792 -0.085343384 0.026270966
16089296 -0.085289528 0.026390094
16138800 -0.085281688 0.02648988
16188304 -0.085206264 0.02661148
16237808 -0.08517596 0.026684354
16287312 -0.085152376 0.026823848
16336816 -0.0850984 0.026926976
16386320 -0.085072824 0.027031782
16435824 -0.085029864 0.02712231
16485328 -0.084977344 0.027235682
16534832 -0.084941384 0.027323198
16584336 -0.084939424 0.027454732
16633840 -0.084886944 0.027570192
16683344 -0.08484912 0.027658486
16732848 -0.08481648 0.027772424
16782352 -0.08476972 0.027860274
16831856 -0.08472268 0.027960044
16881360 -0.084704904 0.028067592
16930864 -0.084670792 0.028161634
16980368 -0.084631368 0.028274814
17029872 -0.084593024 0.028387688
17079376 -0.084548928 0.028507602
17128880 -0.08449608 0.02858514
17178384 -0.084479344 0.028693024
17227888 -0.08442392 0.028811932
17277392 -0.08439564 0.02887404
17326896 -0.084346616 0.0290039
17376400 -0.084309712 0.029133666
17425904 -0.08423848 0.029230376
17475408 -0.084221112 0.029321124
17524912 -0.08420444 0.029439398
17574416 -0.084116488 0.029534734
17623920 -0.084097624 0.029636324
17673424 -0.084093768 0.02973207
17722928 -0.084022712 0.02984571
17772432 -0.083982312 0.02994652
17821936 -0.083964448 0.030059544
17871440 -0.083912208 0.030136976
17920944 -0.083859392 0.030269804
17970448 -0.083800528 0.030358438
18019952 -0.083783456 0.030443224
18069456 -0.083756152 0.030570382
18118960 -0.083715064 0.030665624
18168464 -0.083696848 0.03075814
18217968 -0.083597496 0.030863732
18267472 -0.083608696 0.030984684
18316976 -0.083525464 0.031073688
18366480 -0.083514696 0.031133142
18415984 -0.083449864 0.03126907
18465488 -0.083409424 0.03136693
18514992 -0.083378104 0.031464946
18564496 -0.083318192 0.031562254
18614000 -0.083322088 0.031658306
18663504 -0.083246328 0.03179168
18713008 -0.083203568 0.031859052
18762512 -0.083178968 0.031979236
18812016 -0.083126616 0.03207732
18861520 -0.083094824 0.032170602
18911024 -0.083045576 0.032268986
18960528 -0.082978208 0.032365174
19010032 -0.082958272 0.032469868
19059536 -0.08290308 0.032566704
19109040 -0.082883352 0.032652934
19158544 -0.082830032 0.032773174
19208048 -0.082758952 0.032876608
19257552 -0.08271992 0.032959438
19307056 -0.08269624 0.033055402
19356560 -0.08265996 0.03315185
19406064 -0.082624448 0.03327069
19455568 -0.082559544 0.033380166
19505072 -0.08253284 0.033470996
19554576 -0.0824826 0.033573876
19604080 -0.082425368 0.033670924
19653584 -0.082424592 0.033763
19703088 -0.082345896 0.033846324
19752592 -0.08231912 0.033938016
19802096 -0.082246656 0.034049324
19851600 -0.082240056 0.03415056
19901104 -0.082171896 0.03423376
19950608 -0.082117904 0.034351608
20000112 -0.08207516 0.034420092
20049616 -0.082026728 0.034513028
20099120 -0.081999088 0.034608192
20148624 -0.081958152 0.0347301
20198128 -0.081897704 0.03482254
20247632 -0.08186212 0.034903608
20297136 -0.081831544 0.03501968
20346640 -0.081754672 0.035095008
20396144 -0.081709232 0.035241224
20445648 -0.081704456 0.035300892
20495152 -0.081634016 0.035387876
20544656 -0.081595808 0.035475604
20594160 -0.081545616 0.035590812
20643664 -0.08149004 0.035679088
20693168 -0.081434328 0.035780476
20742672 -0.081388888 0.03587944
20792176 -0.081366928 0.0359571
20841680 -0.081312872 0.036061464
20891184 -0.081261024 0.036153644
20940688 -0.081217152 0.036280728
20990192 -0.081186664 0.036369092
21039696 -0.081130816 0.036436836
21089200 -0.081058888 0.036538188
21138704 -0.08101084 0.036627956
21188208 -0.08098704 0.036716416
21237712 -0.080934488 0.03684932
21287216 -0.080880496 0.036911996
21336720 -0.080872984 0.037002632
21386224 -0.080788664 0.037114
21435728 -0.080748896 0.037219372
21485232 -0.080705104 0.037312692
21534736 -0.080618368 0.037420388
21584240 -0.080598072 0.037486616
21633744 -0.080597576 0.037564736
21683248 -0.080533704 0.037690988
21732752 -0.080469144 0.037769928
21782256 -0.080421352 0.037840264
21831760 -0.080405696 0.03795012
21881264 -0.080313928 0.038040188
21930768 -0.080312216 0.038111436
21980272 -0.08022172 0.038235928
22029776 -0.08018944 0.038335324
22079280 -0.080142496 0.038420808
22128784 -0.080073912 0.038484932
22178288 -0.080021136 0.038599484
22227792 -0.079987408 0.03866706
22277296 -0.079962856 0.038788048
22326800 -0.079902176 0.038847752
22376304 -0.079834472 0.03894932
22425808 -0.079786792 0.039062076
22475312 -0.079741096 0.039142456
22524816 -0.079688552 0.03922954
22574320 -0.07965932 0.039338
22623824 -0.079586624 0.039430912
22673328 -0.07954724 0.0394954
22722832 -0.079524328 0.039581852
22772336 -0.0794704 0.039704008
22821840 -0.079393952 0.039805084
22871344 -0.07936616 0.0398437
22920848 -0.079295592 0.039970608
22970352 -0.07926544 0.040077208
23019856 -0.07920612 0.040143912
23069360 -0.079167184 0.040247012
23118864 -0.07911704 0.040331664
23168368 -0.0790702 0.040406308
23217872 -0.079014968 0.040508328
23267376 -0.078934672 0.040607812
23316880 -0.07888432 0.040711972
23366384 -0.078824272 0.040772612
23415888 -0.078820792 0.040848544
23465392 -0.078769648 0.040970052
23514896 -0.0786938 0.04105422
23564400 -0.078664864 0.041123304
23613904 -0.078602296 0.041239356
23663408 -0.078540752 0.04132476
23712912 -0.078477528 0.04139274
23762416 -0.078452192 0.041467664
23811920 -0.0783818 0.04158458
23861424 -0.078337 0.0416791
23910928 -0.078293024 0.041762804
23960432 -0.078233232 0.041850612
24009936 -0.078180848 0.041925524
24059440 -0.078133608 0.04202876
24108944 -0.078066216 0.042104596
24158448 -0.078018832 0.042207052
24207952 -0.077982032 0.042311832
24257456 -0.077935128 0.042365792
24306960 -0.077876416 0.042451316
24356464 -0.077810896 0.042551408
24405968 -0.07777648 0.042652648
24455472 -0.077726472 0.042707104
24504976 -0.077658912 0.042811588
24554480 -0.077607552 0.042896612
24603984 -0.077532048 0.042990184
24653488 -0.07750076 0.043051644
24702992 -0.077470904 0.04317128
24752496 -0.077398568 0.043272876
24802000 -0.077367856 0.043350596
24851504 -0.077293744 0.043428448
24901008 -0.077258352 0.043527404
24950512 -0.07719148 0.04360432
25000016 -0.077158248 0.04366184
25049520 -0.07708088 0.043782464
25099024 -0.077025768 0.043880108
25148528 -0.076981256 0.043934512
25198032 -0.076954384 0.04403822
25247536 -0.076862352 0.044128984
25297040 -0.076817464 0.044180412
25346544 -0.076774456 0.044278136
25396048 -0.076705176 0.044368184
25445552 -0.076635064 0.044491228
25495056 -0.07659592 0.044585772
25544560 -0.076521448 0.044636532
25594064 -0.0765154 0.044703692
25643568 -0.076443992 0.044816676
25693072 -0.076378496 0.044910444
25742576 -0.076350208 0.044957988
25792080 -0.07626952 0.04506848
25841584 -0.076222552 0.04513022
25891088 -0.076187016 0.04521256
25940592 -0.076101992 0.04533132
25990096 -0.076065512 0.0453991
26039600 -0.075995304 0.04548774
26089104 -0.075948432 0.045540848
26138608 -0.07590312 0.04565806
26188112 -0.075836536 0.045765312
26237616 -0.075778768 0.045844944
26287120 -0.075745664 0.045913852
26336624 -0.075648696 0.046012788
26386128 -0.075594608 0.046104008
26435632 -0.07554452 0.046175556
26485136 -0.075476072 0.046257608
26534640 -0.075479088 0.046321744
26584144 -0.075380456 0.046423168
26633648 -0.075321144 0.046484348
26683152 -0.075298456 0.046551672
26732656 -0.075217616 0.046692184
26782160 -0.075177288 0.046743932
26831664 -0.075111984 0.046831964
26881168 -0.075039432 0.046923292
26930672 -0.074996672 0.046997008
26980176 -0.074930024 0.047100468
27029680 -0.074874824 0.047187152
27079184 -0.07483432 0.047260616
27128688 -0.074774056 0.047324592
27178192 -0.074704328 0.04741956
27227696 -0.074655392 0.04750672
27277200 -0.07462596 0.04757546
27326704 -0.074542288 0.047663268
27376208 -0.07447336 0.047733852
27425712 -0.074429264 0.047814616
27475216 -0.074341328 0.047907984
27524720 -0.074317688 0.047977588
27574224 -0.074279904 0.048055036
27623728 -0.074201984 0.048150688
27673232 -0.074151224 0.04824336
27722736 -0.074112128 0.048336024
27772240 -0.074013408 0.048403472
27821744 -0.073974928 0.048471208
27871248 -0.073889904 0.04859942
27920752 -0.073843792 0.048656568
27970256 -0.073807672 0.048729304
28019760 -0.073763296 0.048797216
28069264 -0.073667352 0.048873828
28118768 -0.073620808 0.048986568
28168272 -0.073557952 0.049033596
28217776 -0.073507936 0.049105424
28267280 -0.07345128 0.049209952
28316784 -0.073387488 0.049291068
28366288 -0.073342464 0.049363672
28415792 -0.073262032 0.049465908
28465296 -0.073189992 0.049524568
28514800 -0.07317684 0.049612768
28564304 -0.073109328 0.04967858
28613808 -0.07301788 0.049771564
28663312 -0.07298328 0.049848808
28712816 -0.072923776 0.049911236
28762320 -0.072846112 0.05000752
28811824 -0.072801592 0.050098352
28861328 -0.072743504 0.050193836
28910832 -0.072678472 0.05025554
28960336 -0.072607424 0.050346104
29009840 -0.072553544 0.05037306
29059344 -0.07247344 0.050457212
29108848 -0.072412984 0.0505591
29158352 -0.072374712 0.05062016
29207856 -0.072356368 0.050711732
29257360 -0.072261784 0.050782928
29306864 -0.072208704 0.050893316
29356368 -0.072134456 0.050957004
29405872 -0.072077232 0.051041224
29455376 -0.072011208 0.05110242
29504880 -0.071982176 0.051182032
29554384 -0.071899144 0.051276756
29603888 -0.071828248 0.051353004
29653392 -0.071763096 0.051427768
