# HZ S RI R 50
50000 -0.087515984 0.009350409
99504 -0.08664336 0.018954148
149008 -0.084051776 0.027948694
198512 -0.080630088 0.036422428
248016 -0.0764718 0.044299608
297520 -0.07165332 0.051470304
347024 -0.066355684 0.057977476
396528 -0.06064066 0.063703908
446032 -0.054701532 0.068717784
495536 -0.048621788 0.072985408
545040 -0.042420496 0.0765536
594544 -0.036323964 0.0794636
644048 -0.030326674 0.081823496
693552 -0.02444966 0.083641144
743056 -0.018752464 0.084953936
792560 -0.013344885 0.085851504
842064 -0.008115 0.086396048
891568 -0.00312914 0.086581584
941072 0.00157765 0.08654264
990576 0.006072386 0.0862128
1040080 0.010244356 0.08576624
1089584 0.014237596 0.085089992
1139088 0.017931894 0.084277808
1188592 0.021443906 0.083394752
1238096 0.024781446 0.082414888
1287600 0.027821396 0.081357048
1337104 0.03072369 0.080240688
1386608 0.033493884 0.079069424
1436112 0.036013272 0.07787736
1485616 0.038397932 0.076687632
1535120 0.040650604 0.075465504
1584624 0.042781836 0.07419308
1634128 0.044739972 0.072982112
1683632 0.04658126 0.071759696
1733136 0.048358508 0.07057808
1782640 0.049996584 0.0693664
1832144 0.051566936 0.068174904
1881648 0.053016068 0.067002072
1931152 0.054391936 0.065858864
1980656 0.055730248 0.064722164
2030160 0.056938768 0.063611664
2079664 0.058132252 0.062543532
2129168 0.059212064 0.06146568
2178672 0.060278916 0.060373456
2228176 0.061225476 0.059383424
2277680 0.062163032 0.0583784
2327184 0.063043184 0.057399748
2376688 0.063898056 0.056444636
2426192 0.064697884 0.055484948
2475696 0.065423288 0.054567732
2525200 0.066178776 0.05368622
2574704 0.066850676 0.052798976
2624208 0.067508336 0.051949604
2673712 0.068130832 0.05108412
2723216 0.068712904 0.05026036
2772720 0.06928076 0.049486708
2822224 0.069822176 0.04871618
2871728 0.070354248 0.047927888
2921232 0.070834032 0.04715654
2970736 0.071311024 0.046474548
3020240 0.071758656 0.045734088
3069744 0.072189272 0.045029496
3119248 0.072593448 0.04434458
3168752 0.072994336 0.043687992
3218256 0.073388336 0.043034968
3267760 0.073763288 0.042393996
3317264 0.0740816 0.041742472
3366768 0.074407104 0.04113702
3416272 0.074741136 0.040562516
3465776 0.075104312 0.039986988
3515280 0.07536252 0.039402292
3564784 0.075670696 0.038816532
3614288 0.075939208 0.038237796
3663792 0.076192072 0.037711868
3713296 0.076476808 0.037217924
3762800 0.076702832 0.0366756
3812304 0.076935536 0.036170848
3861808 0.077154968 0.035651824
3911312 0.077383784 0.035152048
3960816 0.077600272 0.034714556
4010320 0.077850536 0.034219736
4059824 0.078007064 0.0337468
4109328 0.078186168 0.033310368
4158832 0.078403872 0.032872286
4208336 0.078592304 0.032409512
4257840 0.078744832 0.031986714
4307344 0.0789092 0.031591692
4356848 0.079069968 0.031154764
4406352 0.079219248 0.030762922
4455856 0.07936896 0.030330342
4505360 0.079538424 0.029965982
4554864 0.079686072 0.029553292
4604368 0.079822048 0.029176046
4653872 0.079954488 0.028814296
4703376 0.08007808 0.028455826
4752880 0.080219968 0.028084516
4802384 0.080332112 0.02772746
4851888 0.080457704 0.0273864
4901392 0.080586896 0.027015406
4950896 0.0806672 0.026685224
5000400 0.080792136 0.026356882
5049904 0.080911992 0.026052936
5099408 0.080986216 0.02572338
5148912 0.08109672 0.025393382
5198416 0.081199504 0.025080488
5247920 0.08128572 0.024762822
5297424 0.081371408 0.02446723
5346928 0.081437048 0.02414145
5396432 0.081550328 0.023884002
5445936 0.081610128 0.023566884
5495440 0.0817052 0.023297744
5544944 0.081804256 0.023023172
5594448 0.081901592 0.022698716
5643952 0.081982728 0.022414968
5693456 0.082033504 0.022168094
5742960 0.082083344 0.021899662
5792464 0.082161592 0.021614586
5841968 0.082233264 0.02135731
5891472 0.082286224 0.021116968
5940976 0.08237996 0.02085211
5990480 0.082447448 0.02063275
6039984 0.082500808 0.020412918
6089488 0.082576256 0.020189914
6138992 0.08266796 0.019969576
6188496 0.08277904 0.019837792
6238000 0.082906608 0.019650508
6287504 0.083052312 0.019506574
6337008 0.083189928 0.019292042
6386512 0.083332088 0.01904027
6436016 0.083379144 0.018754256
6485520 0.083415568 0.0184579
6535024 0.083423624 0.018148608
6584528 0.08340172 0.01787591
6634032 0.083410152 0.017591958
6683536 0.083406168 0.017380592
6733040 0.083434688 0.017188926
6782544 0.083427112 0.016917144
6832048 0.083481112 0.016736459
6881552 0.083514672 0.016508136
6931056 0.08354136 0.016282763
6980560 0.08354148 0.016079359
7030064 0.083602696 0.015888494
7079568 0.08363504 0.015675981
7129072 0.083694184 0.015462403
7178576 0.083687104 0.015286336
7228080 0.08372376 0.015104783
7277584 0.083743616 0.014891813
7327088 0.083773584 0.014678592
7376592 0.08379532 0.014513578
7426096 0.083821032 0.014355726
7475600 0.083894096 0.014164096
7525104 0.083903528 0.013948346
7574608 0.083905744 0.013771324
7624112 0.083937048 0.013609694
7673616 0.083957536 0.013432381
7723120 0.083970008 0.013269305
7772624 0.08404032 0.013112564
7822128 0.084074984 0.012906723
7871632 0.084109952 0.01276339
7921136 0.084111528 0.012577173
7970640 0.084132512 0.012422841
8020144 0.084161296 0.012254722
8069648 0.08419112 0.012069135
8119152 0.0841942 0.011926842
8168656 0.084218736 0.011771674
8218160 0.08426152 0.011618428
8267664 0.084279392 0.011420224
8317168 0.084285584 0.011269566
8366672 0.084303496 0.011085873
8416176 0.084329288 0.010982913
8465680 0.084349728 0.010804298
8515184 0.08437532 0.01066194
8564688 0.084391208 0.010517613
8614192 0.084395784 0.010340434
8663696 0.084434232 0.01022408
8713200 0.084471384 0.010069891
8762704 0.084448704 0.009915321
8812208 0.084486808 0.00976099
8861712 0.08451628 0.009615147
8911216 0.084544528 0.009464176
8960720 0.084520496 0.009331828
9010224 0.084561656 0.009174943
9059728 0.084579248 0.009037714
9109232 0.084562368 0.008938049
9158736 0.08457152 0.008760531
9208240 0.084609096 0.008659294
9257744 0.084625288 0.008509491
9307248 0.084629456 0.008353357
9356752 0.084621896 0.008238463
9406256 0.084638864 0.008105309
9455760 0.084670128 0.007985907
9505264 0.084664568 0.007821698
9554768 0.084706344 0.007719148
9604272 0.084717992 0.007574044
9653776 0.08469804 0.007431356
9703280 0.084721208 0.007307963
9752784 0.084735232 0.007200987
9802288 0.084709624 0.007057948
9851792 0.084719416 0.006927948
9901296 0.084791792 0.006813184
9950800 0.084780992 0.006700446
10000304 0.084788624 0.006566872
10049808 0.084801352 0.006419285
10099312 0.084776704 0.006309252
10148816 0.084822792 0.006214906
10198320 0.084826168 0.006087351
10247824 0.084822272 0.005986097
10297328 0.084858288 0.005845959
10346832 0.084862184 0.005703572
10396336 0.084869304 0.005590756
10445840 0.084843688 0.005483021
10495344 0.084859304 0.005392286
10544848 0.08491488 0.005244239
10594352 0.08487024 0.005114074
10643856 0.0848618 0.005022635
10693360 0.084917224 0.00490504
10742864 0.084906152 0.004777391
10792368 0.084901912 0.004696757
10841872 0.08491232 0.004575573
10891376 0.084908968 0.004479379
10940880 0.0849618 0.004328982
10990384 0.084908552 0.004228817
11039888 0.0849398 0.004117534
11089392 0.084962408 0.004017119
11138896 0.084953968 0.003870651
11188400 0.084951736 0.003794596
11237904 0.084959408 0.00367667
11287408 0.084943896 0.003548911
11336912 0.084951568 0.003425897
11386416 0.084954864 0.003358943
11435920 0.084992872 0.003261274
11485424 0.084976032 0.003140159
11534928 0.08498976 0.003055435
11584432 0.084996792 0.002954769
11633936 0.08498236 0.002825886
11683440 0.084985752 0.002710214
11732944 0.0849886 0.002609715
11782448 0.085002784 0.002485449
11831952 0.085001288 0.002405587
11881456 0.085007664 0.002344565
11930960 0.085008616 0.002208498
11980464 0.085015144 0.00213006
12029968 0.085009952 0.00203619
12079472 0.085007664 0.001937644
12128976 0.085023136 0.001823946
12178480 0.085032816 0.001714381
12227984 0.085022864 0.001631941
12277488 0.085020432 0.001533654
12326992 0.085028192 0.001438245
12376496 0.085027072 0.001324736
12426000 0.08505184 0.001243894
12475504 0.085039728 0.0011388
12525008 0.085027648 0.001021446
12574512 0.085026008 0.000927331
12624016 0.085027184 0.000831737
12673520 0.085023176 0.000737273
12723024 0.085033936 0.000678462
12772528 0.085061144 0.000579476
12822032 0.085044408 0.000483559
12871536 0.085040768 0.000373108
12921040 0.085023488 0.000292752
12970544 0.085038584 0.000201812
13020048 0.085051016 0.000104347
13069552 0.085021176 7.851e-06
13119056 0.08502392 -8.6974e-05
13168560 0.085054968 -0.000127435
13218064 0.085036392 -0.000273467
13267568 0.085023448 -0.000342548
13317072 0.085053424 -0.000432163
13366576 0.085020816 -0.000527038
13416080 0.085072256 -0.000639021
13465584 0.085054232 -0.000712715
13515088 0.085029424 -0.00080861
13564592 0.085025216 -0.000889495
13614096 0.085027416 -0.000970087
13663600 0.08504924 -0.001074669
13713104 0.085021488 -0.001155505
13762608 0.085036032 -0.001225788
13812112 0.085013352 -0.001337287
13861616 0.085006632 -0.001397304
13911120 0.085050128 -0.001489202
13960624 0.085029328 -0.001575351
14010128 0.085013944 -0.001674739
14059632 0.084996096 -0.001756979
14109136 0.085037928 -0.001811112
14158640 0.085018264 -0.001919128
14208144 0.08501616 -0.002002544
14257648 0.08503 -0.00209819
14307152 0.085002616 -0.002180915
14356656 0.084999616 -0.002260056
14406160 0.08502828 -0.002343499
14455664 0.08499844 -0.002424296
14505168 0.08500064 -0.002503239
14554672 0.084974984 -0.002602729
14604176 0.084988352 -0.002686723
14653680 0.085033456 -0.0027728
14703184 0.084978384 -0.002841663
14752688 0.0849782 -0.002902015
14802192 0.084963648 -0.003018627
14851696 0.084958112 -0.003078817
14901200 0.0849942 -0.003188155
14950704 0.084959448 -0.003255201
15000208 0.084974552 -0.003329265
15049712 0.08495288 -0.003437966
15099216 0.084956288 -0.003481469
15148720 0.084964688 -0.003541235
15198224 0.084958136 -0.003674216
15247728 0.084937776 -0.003762391
15297232 0.084939032 -0.003801617
15346736 0.084950808 -0.003867237
15396240 0.084953896 -0.003949638
15445744 0.084955184 -0.004038912
15495248 0.084926984 -0.004115412
15544752 0.084927496 -0.004200711
15594256 0.0849028 -0.004268247
15643760 0.08493152 -0.004363159
15693264 0.084896696 -0.004421761
15742768 0.084918568 -0.004522078
15792272 0.084929656 -0.004573896
15841776 0.084901272 -0.004676243
15891280 0.084882576 -0.004739065
15940784 0.084914552 -0.00481912
15990288 0.084893952 -0.004900344
16039792 0.084895736 -0.004973829
16089296 0.084879584 -0.005060731
16138800 0.084855992 -0.005125661
16188304 0.08486208 -0.005207069
16237808 0.08487 -0.005250816
16287312 0.084874432 -0.005333381
16336816 0.084861328 -0.005422734
16386320 0.084847544 -0.005500176
16435824 0.084842512 -0.005596683
16485328 0.08483268 -0.005659643
16534832 0.084827704 -0.005715825
16584336 0.084833176 -0.005806017
16633840 0.08485408 -0.005879262
16683344 0.084832968 -0.005918107
16732848 0.084822312 -0.006022256
16782352 0.084801544 -0.006103146
16831856 0.084806416 -0.006156996
16881360 0.08479872 -0.006247086
16930864 0.084802912 -0.006295037
16980368 0.084783256 -0.006373091
17029872 0.08477468 -0.006468896
17079376 0.084759224 -0.006532097
17128880 0.084760552 -0.006583733
17178384 0.084781616 -0.00666468
17227888 0.084752656 -0.006752278
17277392 0.084767056 -0.006811803
17326896 0.084760624 -0.006898768
17376400 0.0847326 -0.006961013
17425904 0.08473688 -0.007043768
17475408 0.084728928 -0.007100529
17524912 0.084727872 -0.007197402
17574416 0.084719848 -0.00727474
17623920 0.084706936 -0.007337696
17673424 0.084702728 -0.007399198
17722928 0.084701824 -0.007463538
17772432 0.084682464 -0.007530604
17821936 0.084699392 -0.007586773
17871440 0.084661696 -0.007672679
17920944 0.084676704 -0.007749111
17970448 0.084656584 -0.007828239
18019952 0.084628224 -0.007880442
18069456 0.08467656 -0.007964815
18118960 0.08466768 -0.00801303
18168464 0.084623456 -0.008078057
18217968 0.084628328 -0.00815203
18267472 0.08462548 -0.008214283
18316976 0.084628464 -0.008307616
18366480 0.084580776 -0.008381732
18415984 0.084582176 -0.008437512
18465488 0.0846034 -0.008500233
18514992 0.084576824 -0.008588437
18564496 0.084566992 -0.008668051
18614000 0.084573688 -0.008696394
18663504 0.0845686 -0.008774234
18713008 0.084558008 -0.008852706
18762512 0.084575688 -0.008898919
18812016 0.08453876 -0.008999715
18861520 0.084536704 -0.009043
18911024 0.084508752 -0.009111159
18960528 0.084511984 -0.009167489
19010032 0.084500336 -0.009261047
19059536 0.084495976 -0.009327468
19109040 0.0844876 -0.009390916
19158544 0.084489184 -0.009446357
19208048 0.084476264 -0.009511209
19257552 0.084463832 -0.009594335
19307056 0.084445488 -0.009637765
19356560 0.084473224 -0.009705331
19406064 0.084441416 -0.009804046
19455568 0.084433008 -0.009872667
19505072 0.0844188 -0.009929002
19554576 0.084421064 -0.009996904
19604080 0.084398088 -0.010022908
19653584 0.084415 -0.010131905
19703088 0.084394728 -0.010210153
19752592 0.084406 -0.010234834
19802096 0.08437288 -0.010303578
19851600 0.084373736 -0.010372919
19901104 0.084367384 -0.010448452
19950608 0.0843586 -0.010488148
20000112 0.08434444 -0.010568087
20049616 0.084356688 -0.010618549
20099120 0.084312336 -0.010684464
20148624 0.084323016 -0.010740317
20198128 0.084321696 -0.010824609
20247632 0.084301 -0.010895747
20297136 0.084282608 -0.010945259
20346640 0.084288992 -0.010995495
20396144 0.084256688 -0.011098118
20445648 0.084262704 -0.011115274
20495152 0.084290192 -0.011222673
20544656 0.084264336 -0.011273696
20594160 0.08427684 -0.011329248
20643664 0.084233608 -0.011394034
20693168 0.08422284 -0.011459244
20742672 0.084208488 -0.01151121
20792176 0.084205216 -0.011589205
20841680 0.084189728 -0.011634352
20891184 0.084172048 -0.011707527
20940688 0.084160272 -0.011807816
20990192 0.084172096 -0.011883947
21039696 0.0841454 -0.011898035
21089200 0.084119744 -0.011983269
21138704 0.084123168 -0.012028293
21188208 0.084105144 -0.01208174
21237712 0.08411112 -0.012150781
21287216 0.084131792 -0.01220912
21336720 0.084091104 -0.012295037
21386224 0.08408528 -0.012342107
21435728 0.084058648 -0.012411319
21485232 0.084043608 -0.012478339
21534736 0.084028216 -0.012541439
21584240 0.084044096 -0.012604102
21633744 0.08405064 -0.012638805
21683248 0.084017456 -0.012701147
21732752 0.083986912 -0.012769486
21782256 0.08402336 -0.012802641
21831760 0.083992568 -0.012901291
21881264 0.08399004 -0.01296065
21930768 0.083975488 -0.013001367
21980272 0.083951704 -0.013076911
22029776 0.083936144 -0.013173745
22079280 0.083931304 -0.013207304
22128784 0.08393132 -0.013274943
22178288 0.083923392 -0.013314419
22227792 0.083932896 -0.013363646
22277296 0.083909824 -0.013459905
22326800 0.083893632 -0.013495175
22376304 0.083879032 -0.013567805
22425808 0.083879704 -0.013613771
22475312 0.08387008 -0.01368269
22524816 0.083844448 -0.01375296
22574320 0.083864464 -0.01382439
22623824 0.083850704 -0.013869131
22673328 0.08382516 -0.013928218
22722832 0.083815104 -0.013995351
22772336 0.083806616 -0.014077795
22821840 0.083772816 -0.014117783
22871344 0.083801152 -0.014152845
22920848 0.083762464 -0.014251639
22970352 0.083752904 -0.014302645
23019856 0.08374696 -0.014343125
23069360 0.083734448 -0.014420716
23118864 0.08371096 -0.014441648
23168368 0.083712688 -0.014521603
23217872 0.083709912 -0.014570748
23267376 0.083683304 -0.014649046
23316880 0.083669664 -0.014718127
23366384 0.083647704 -0.014773134
23415888 0.083666984 -0.014810475
23465392 0.08364616 -0.014881545
23514896 0.083626016 -0.014945178
23564400 0.083602288 -0.01499623
23613904 0.08360184 -0.015078619
23663408 0.08358872 -0.015142789
23712912 0.083568688 -0.015195945
23762416 0.083565368 -0.01523814
23811920 0.083565424 -0.015292487
23861424 0.083532768 -0.015363449
23910928 0.083520824 -0.015421875
23960432 0.083507688 -0.015494918
24009936 0.083489632 -0.015537506
24059440 0.083475792 -0.015615146
24108944 0.0834372 -0.015656443
24158448 0.083441 -0.01574338
24207952 0.083442488 -0.015820779
24257456 0.083444432 -0.01583139
24306960 0.083407264 -0.015857132
24356464 0.083392472 -0.01594487
24405968 0.083412368 -0.015973598
24455472 0.083375848 -0.016074779
24504976 0.083356816 -0.016139964
24554480 0.083333128 -0.016179735
24603984 0.083320944 -0.016235227
24653488 0.083280768 -0.016278211
24702992 0.08327724 -0.016348112
24752496 0.083270072 -0.016419375
24802000 0.083253952 -0.016422128
24851504 0.083252088 -0.016492551
24901008 0.083241576 -0.016545849
24950512 0.08321472 -0.016593752
25000016 0.083194976 -0.016634446
25049520 0.083213032 -0.016678952
25099024 0.083181888 -0.016722754
25148528 0.083187312 -0.016807034
25198032 0.083159808 -0.016835358
25247536 0.083168464 -0.016893444
25297040 0.083169328 -0.016978238
25346544 0.083185536 -0.016988174
25396048 0.083158072 -0.017069714
25445552 0.083162696 -0.017109988
25495056 0.083156704 -0.01719563
25544560 0.08312488 -0.017232614
25594064 0.083081336 -0.01727522
25643568 0.083089088 -0.017363756
25693072 0.083148672 -0.017383038
25742576 0.083094784 -0.017466874
25792080 0.083080256 -0.01751499
25841584 0.083088904 -0.01756048
25891088 0.083055224 -0.017637928
25940592 0.083064112 -0.017661464
25990096 0.083036352 -0.017711022
26039600 0.083038288 -0.017807802
26089104 0.083043672 -0.017887324
26138608 0.083008824 -0.017907274
26188112 0.083027432 -0.017971024
26237616 0.08300188 -0.018016072
26287120 0.082961056 -0.01807326
26336624 0.082995136 -0.018147816
26386128 0.082947376 -0.018160748
26435632 0.082923432 -0.01825482
26485136 0.08296144 -0.018281472
26534640 0.082888936 -0.018360516
26584144 0.082913704 -0.018417862
26633648 0.082887864 -0.018475076
26683152 0.082885096 -0.018547684
26732656 0.082883504 -0.01861604
26782160 0.082840216 -0.018637784
26831664 0.08283392 -0.018697568
26881168 0.082879088 -0.018760208
26930672 0.082813768 -0.018787858
26980176 0.082822616 -0.018880588
27029680 0.082804904 -0.018895024
27079184 0.082788032 -0.018962582
27128688 0.082752592 -0.01904463
27178192 0.082778976 -0.0190737
27227696 0.082734368 -0.019148284
27277200 0.082732544 -0.019201194
27326704 0.082721744 -0.019234852
27376208 0.082695864 -0.01929937
27425712 0.082698336 -0.019388902
27475216 0.082680224 -0.019403414
27524720 0.082687992 -0.019448014
27574224 0.08264024 -0.019519062
27623728 0.082606464 -0.019572
27673232 0.082608032 -0.019668662
27722736 0.082576936 -0.01969016
27772240 0.08258776 -0.01977639
27821744 0.082603328 -0.01979414
27871248 0.082599512 -0.019835734
27920752 0.082560696 -0.019903526
27970256 0.08254384 -0.019931502
28019760 0.082519896 -0.020007842
28069264 0.082538248 -0.020073274
28118768 0.082489816 -0.02009601
28168272 0.082479464 -0.020184794
28217776 0.082459496 -0.020225586
28267280 0.08247976 -0.020287504
28316784 0.082454736 -0.020330336
28366288 0.082428 -0.020382402
28415792 0.082449224 -0.020443968
28465296 0.082386968 -0.020487282
28514800 0.082398104 -0.02055058
28564304 0.082367264 -0.02059572
28613808 0.082365512 -0.020656974
28663312 0.082333016 -0.020706992
28712816 0.082343056 -0.020758286
28762320 0.08231232 -0.020799774
28811824 0.082343472 -0.020852254
28861328 0.082309536 -0.020915168
28910832 0.08226348 -0.020986834
28960336 0.08228832 -0.0210016
29009840 0.082242 -0.021056448
29059344 0.082252344 -0.02112324
29108848 0.082236152 -0.021181974
29158352 0.082237968 -0.021268772
29207856 0.082216232 -0.021259668
29257360 0.082164424 -0.021345512
29306864 0.082199176 -0.021400564
29356368 0.082144952 -0.021465372
29405872 0.082168168 -0.021467568
29455376 0.082133056 -0.021533288
29504880 0.082118304 -0.021619702
29554384 0.082080952 -0.021670106
29603888 0.08211828 -0.021720798
29653392 0.0820782 -0.021761076
29702896 0.082079736 -0.02181729
29752400 0.082034872 -0.021858054
29801904 0.08202068 -0.021927614
29851408 0.082010536 -0.021979862
29900912 0.082006304 -0.022010806
29950416 0.08199192 -0.022051058
29999920 0.081957744 -0.022146184
30049424 0.081943984 -0.022188178
30098928 0.081934 -0.022233294
30148432 0.081918056 -0.022272422
