# HZ S RI R 50
50000 0.000234772 -2.9584e-05
99504 0.000240406 -1.2713e-05
149008 0.000250962 2.1934e-05
198512 0.000235046 -1.691e-06
248016 0.000242275 3.0696e-05
297520 0.000252191 1.9975e-05
347024 0.000266204 1.5078e-05
396528 0.000249342 1.6278e-05
446032 0.000255209 3.0414e-05
495536 0.000260183 3.1274e-05
545040 0.00027201 1.736e-05
594544 0.000229591 9.905e-06
644048 0.000237928 2.3563e-05
693552 0.000275521 1.8897e-05
743056 0.000252006 2.1978e-05
792560 0.00023753 2.0729e-05
842064 0.000259751 3.5818e-05
891568 0.00025202 2.0849e-05
941072 0.000249134 3.0209e-05
990576 0.000271747 1.542e-05
1040080 0.000258 1.1651e-05
1089584 0.00024318 1.5571e-05
1139088 0.000260937 1.6744e-05
1188592 0.000283297 2.3743e-05
1238096 0.000257815 2.9173e-05
1287600 0.000260299 2.9872e-05
1337104 0.000264299 3.0114e-05
1386608 0.000260975 3.2022e-05
1436112 0.000258138 2.7782e-05
1485616 0.000265958 1.4242e-05
1535120 0.000259008 3.6918e-05
1584624 0.000263104 2.1924e-05
1634128 0.000257985 8.997e-06
1683632 0.000246602 2.9785e-05
1733136 0.000269369 2.9049e-05
1782640 0.000260178 2.4157e-05
1832144 0.000261772 2.3295e-05
1881648 0.000257795 3.0506e-05
1931152 0.000258308 3.3007e-05
1980656 0.000273269 3.8539e-05
2030160 0.000272959 1.358e-05
2079664 0.000279912 3.1644e-05
2129168 0.000298371 3.2457e-05
2178672 0.000282242 1.2995e-05
2228176 0.000262953 2.9609e-05
2277680 0.000262946 2.4387e-05
2327184 0.000277089 3.5103e-05
2376688 0.00026939 3.2525e-05
2426192 0.000280554 2.4604e-05
2475696 0.000300968 9.966e-06
2525200 0.0002621 4.3754e-05
2574704 0.000286916 1.8438e-05
2624208 0.000273783 3.1772e-05
2673712 0.000271908 1.6308e-05
2723216 0.000265503 3.7513e-05
2772720 0.000281171 4.3393e-05
2822224 0.00028598 2.2289e-05
2871728 0.000278497 1.6238e-05
2921232 0.000298124 3.5923e-05
2970736 0.000279007 3.7004e-05
3020240 0.000303123 1.8153e-05
3069744 0.000281011 2.3693e-05
3119248 0.000277973 1.8265e-05
3168752 0.000271951 2.1105e-05
3218256 0.000288193 2.57e-06
3267760 0.000272854 2.0646e-05
3317264 0.000273815 1.2997e-05
3366768 0.000270713 3.587e-05
3416272 0.000286322 2.086e-05
3465776 0.000287248 1.7797e-05
3515280 0.000287723 1.9807e-05
3564784 0.000277094 2.0698e-05
3614288 0.000288707 2.1074e-05
3663792 0.000293193 2.0128e-05
3713296 0.000285128 1.7788e-05
3762800 0.000272285 1.8918e-05
3812304 0.000278385 1.9834e-05
3861808 0.00027661 2.4055e-05
3911312 0.000288772 3.4969e-05
3960816 0.000299866 3.0306e-05
4010320 0.000275031 4.476e-06
4059824 0.000296216 3.2226e-05
4109328 0.000297923 2.459e-06
4158832 0.000276191 1.1592e-05
4208336 0.000292001 1.8327e-05
4257840 0.000284826 1.0166e-05
4307344 0.00029687 3.6537e-05
4356848 0.000296646 3.3936e-05
4406352 0.000284887 -5.034e-06
4455856 0.0002944 2.366e-06
4505360 0.000293295 2.3798e-05
4554864 0.000277876 6.996e-06
4604368 0.000292924 1.2045e-05
4653872 0.000288683 1.6288e-05
4703376 0.000291998 2.3806e-05
4752880 0.000294864 9.523e-06
4802384 0.000274382 3.369e-06
4851888 0.000282979 4.996e-06
4901392 0.000293678 2.0498e-05
4950896 0.000283411 1.4884e-05
5000400 0.000309167 -1.0415e-05
5049904 0.000277822 7.297e-06
5099408 0.000300179 1.6635e-05
5148912 0.000287682 1.194e-05
5198416 0.000281128 2.7833e-05
5247920 0.000294441 6.278e-06
5297424 0.000290305 4.769e-06
5346928 0.000286103 1.8032e-05
5396432 0.000281459 1.6124e-05
5445936 0.000294768 -2.155e-06
5495440 0.000282386 2.1515e-05
5544944 0.000292089 2.033e-05
5594448 0.00029205 3.549e-06
5643952 0.000293222 1.1927e-05
5693456 0.000285815 2.3795e-05
5742960 0.000296123 1.4545e-05
5792464 0.000316308 1.8694e-05
5841968 0.000295673 1.7257e-05
5891472 0.000287386 3.0522e-05
5940976 0.00030975 3.5288e-05
5990480 0.000320818 1.8913e-05
6039984 0.000306982 2.8189e-05
6089488 0.000311635 4.3135e-05
6138992 0.000294127 4.7386e-05
6188496 0.00031671 4.1304e-05
6238000 0.000315356 3.8875e-05
6287504 0.000325931 3.6835e-05
6337008 0.000348129 4.3706e-05
6386512 0.000353418 1.5108e-05
6436016 0.000348009 1.2405e-05
6485520 0.000341448 1.1278e-05
6535024 0.000343868 -2.178e-06
6584528 0.00036026 5.32e-06
6634032 0.000351036 -2.934e-06
6683536 0.000334784 -1.3404e-05
6733040 0.000320064 -5.71e-07
6782544 0.000353526 -1.576e-06
6832048 0.000325425 -7.786e-06
6881552 0.000333837 -2.1341e-05
6931056 0.000314476 -5.864e-06
6980560 0.000327622 -2.082e-05
7030064 0.000339381 2.768e-06
7079568 0.00033518 3.444e-06
7129072 0.000311254 -3.696e-06
7178576 0.000327039 -1.685e-05
7228080 0.000323543 -1.8455e-05
7277584 0.000306679 -8.075e-06
7327088 0.000310277 -8.088e-06
7376592 0.000325482 -4.402e-06
7426096 0.000337196 -1.9117e-05
7475600 0.000339914 -1.2856e-05
7525104 0.000321646 -2.1688e-05
7574608 0.000321985 -2.4862e-05
7624112 0.000323904 -2.1191e-05
7673616 0.000323444 -1.8392e-05
7723120 0.000332659 -2.7594e-05
7772624 0.000311084 -1.3695e-05
7822128 0.000318336 -4.1147e-05
7871632 0.000323147 -9.722e-06
7921136 0.000319901 -2.9066e-05
7970640 0.000333878 -1.6407e-05
8020144 0.000317454 -1.7445e-05
8069648 0.000322703 -2.38e-05
8119152 0.00033522 -1.5098e-05
8168656 0.000320352 -9.59e-06
8218160 0.000318992 -3.332e-06
8267664 0.000331228 -7.182e-06
8317168 0.000341544 -3.2772e-05
8366672 0.000333128 -3.2427e-05
8416176 0.000320062 -1.0805e-05
8465680 0.000338664 -1.4243e-05
8515184 0.000340754 -3.7219e-05
8564688 0.00033071 -2.9906e-05
8614192 0.000318741 -3.5382e-05
8663696 0.000325988 -2.627e-05
8713200 0.000321164 -4.469e-05
8762704 0.00031718 -4.369e-05
8812208 0.000321093 -2.9109e-05
8861712 0.00031903 -1.8207e-05
8911216 0.000321296 -9.267e-06
8960720 0.000327555 -3.6423e-05
9010224 0.000341145 -1.78e-05
9059728 0.000323446 -1.8503e-05
9109232 0.000324959 -2.9982e-05
9158736 0.000330548 -1.9819e-05
9208240 0.000354326 -4.3264e-05
9257744 0.000337784 -4.9524e-05
9307248 0.00034505 -1.733e-05
9356752 0.000307423 -4.498e-06
9406256 0.000326844 -1.6251e-05
9455760 0.000345846 -2.5689e-05
9505264 0.000335892 -2.5815e-05
9554768 0.000327395 -4.0554e-05
9604272 0.000330697 -3.6475e-05
9653776 0.000324722 -4.5154e-05
9703280 0.000338675 -3.3306e-05
9752784 0.000337397 -4.1242e-05
9802288 0.000342021 -5.0452e-05
9851792 0.000329793 -4.4982e-05
9901296 0.000338575 -3.0943e-05
9950800 0.000326245 -5.7841e-05
10000304 0.000347365 -3.1037e-05
10049808 0.000327705 -2.712e-05
10099312 0.000331668 -2.4615e-05
10148816 0.000343538 -3.4383e-05
10198320 0.000324516 -3.439e-05
10247824 0.000330307 -1.7112e-05
10297328 0.000334603 -3.082e-05
10346832 0.000333778 -5.2203e-05
10396336 0.000339517 -5.465e-05
10445840 0.000338322 -4.8863e-05
10495344 0.00033867 -2.9988e-05
10544848 0.000351162 -3.1597e-05
10594352 0.000342822 -4.0958e-05
10643856 0.000342335 -5.0681e-05
10693360 0.000343063 -5.2822e-05
10742864 0.000332797 -3.7438e-05
10792368 0.000341887 -3.0037e-05
10841872 0.00034029 -5.0099e-05
10891376 0.000330379 -4.2248e-05
10940880 0.000350749 -5.5963e-05
10990384 0.000346142 -2.6057e-05
11039888 0.000342982 -4.2156e-05
11089392 0.000349171 -5.5266e-05
11138896 0.000325655 -4.5061e-05
11188400 0.000340652 -4.794e-05
11237904 0.000340596 -6.0043e-05
11287408 0.00033821 -4.8294e-05
11336912 0.00033395 -4.3825e-05
11386416 0.00032655 -6.2965e-05
11435920 0.000341273 -5.3648e-05
11485424 0.000339138 -5.1739e-05
11534928 0.000341294 -5.2835e-05
11584432 0.000325092 -6.2408e-05
11633936 0.000332128 -5.008e-05
11683440 0.000340921 -4.1109e-05
11732944 0.00034815 -6.0231e-05
11782448 0.000342253 -5.5163e-05
11831952 0.000348053 -5.646e-05
11881456 0.000345674 -4.6259e-05
11930960 0.000314245 -6.3445e-05
11980464 0.000346603 -5.0344e-05
12029968 0.00035691 -6.1371e-05
12079472 0.000344423 -5.3164e-05
12128976 0.000337362 -4.8294e-05
12178480 0.000346487 -6.0827e-05
12227984 0.000344419 -4.5633e-05
12277488 0.00035942 -5.7675e-05
12326992 0.000351815 -5.5541e-05
12376496 0.00034181 -8.6535e-05
12426000 0.000355423 -7.729e-05
12475504 0.000355124 -5.1321e-05
12525008 0.000354439 -6.1896e-05
12574512 0.000346862 -6.1986e-05
12624016 0.000354082 -8.2374e-05
12673520 0.000357333 -6.0018e-05
12723024 0.000360866 -6.8639e-05
12772528 0.000354354 -7.1888e-05
12822032 0.000340892 -6.3463e-05
12871536 0.000374391 -7.0839e-05
12921040 0.000346225 -7.6392e-05
12970544 0.000341946 -6.518e-05
13020048 0.000359843 -5.4181e-05
13069552 0.000346887 -7.3623e-05
13119056 0.000358558 -6.9305e-05
13168560 0.000352124 -7.4223e-05
13218064 0.000338092 -6.874e-05
13267568 0.000363945 -7.1419e-05
13317072 0.000353743 -6.7699e-05
13366576 0.000362561 -6.3604e-05
13416080 0.000346015 -6.9817e-05
13465584 0.000347859 -6.9602e-05
13515088 0.000338515 -6.7318e-05
13564592 0.000358247 -6.5811e-05
13614096 0.000358254 -7.9182e-05
13663600 0.000353228 -7.8572e-05
13713104 0.000367319 -7.9191e-05
13762608 0.000357641 -7.604e-05
13812112 0.000349274 -9.2597e-05
13861616 0.000362915 -6.6839e-05
13911120 0.00035664 -8.6015e-05
13960624 0.000352746 -7.3867e-05
14010128 0.000336899 -7.0921e-05
14059632 0.000376068 -7.1043e-05
14109136 0.000368305 -8.8102e-05
14158640 0.000350988 -6.4119e-05
14208144 0.000377298 -7.8987e-05
14257648 0.000366233 -8.2437e-05
14307152 0.000347927 -7.2434e-05
14356656 0.000371919 -8.2197e-05
14406160 0.000366484 -7.3497e-05
14455664 0.000372855 -8.1214e-05
14505168 0.000351135 -8.7886e-05
14554672 0.00034848 -7.9298e-05
14604176 0.00035634 -9.6364e-05
14653680 0.000357618 -8.6586e-05
14703184 0.000354314 -9.6589e-05
14752688 0.000369658 -8.6256e-05
14802192 0.000362614 -9.3143e-05
14851696 0.000358299 -9.0461e-05
14901200 0.000364005 -8.8268e-05
14950704 0.000361737 -0.000114922
15000208 0.000367678 -8.3194e-05
15049712 0.0003505 -8.5282e-05
15099216 0.000360857 -9.3621e-05
15148720 0.000372631 -8.9802e-05
15198224 0.000356574 -8.9468e-05
15247728 0.000361506 -9.0619e-05
15297232 0.000367037 -7.4644e-05
15346736 0.000379296 -0.000101717
15396240 0.000364929 -9.2254e-05
15445744 0.000391137 -8.3876e-05
15495248 0.000370795 -9.6719e-05
15544752 0.000369063 -9.7718e-05
15594256 0.000392526 -0.000108642
15643760 0.000365466 -9.1965e-05
15693264 0.000373409 -0.00011267
15742768 0.000369074 -9.779e-05
15792272 0.000375429 -8.5481e-05
15841776 0.00035064 -0.000105149
15891280 0.000370969 -9.4291e-05
15940784 0.000358265 -0.000113138
15990288 0.000364374 -0.000107507
16039792 0.000373363 -0.000110517
16089296 0.000378841 -9.1175e-05
16138800 0.000368163 -8.7446e-05
16188304 0.000363709 -0.000113993
16237808 0.00036686 -0.000106944
16287312 0.000351949 -9.0655e-05
16336816 0.000370537 -0.00011497
16386320 0.000376896 -0.000108544
16435824 0.000362915 -0.000102416
16485328 0.000372018 -0.000108889
16534832 0.000376245 -0.00010411
16584336 0.000377867 -0.000106658
16633840 0.000377075 -0.000115879
16683344 0.000360289 -0.000112384
16732848 0.000377302 -0.000121965
16782352 0.000383403 -0.000101618
16831856 0.000374388 -0.000116143
16881360 0.000364723 -0.000116297
16930864 0.000373193 -0.000109933
16980368 0.000365849 -0.000106678
17029872 0.000380925 -0.000129148
17079376 0.000361114 -0.00011959
17128880 0.000380965 -0.000123483
17178384 0.000364913 -0.000102459
17227888 0.000388422 -9.0924e-05
17277392 0.000370446 -0.000118984
17326896 0.000389662 -0.000136247
17376400 0.000374 -0.000121365
17425904 0.000380031 -0.000124375
17475408 0.000384668 -0.000136057
17524912 0.000384903 -0.000103597
17574416 0.000387146 -0.000124046
17623920 0.000387655 -0.000117199
17673424 0.000380336 -0.000146858
17722928 0.000358008 -0.000132089
17772432 0.000376418 -0.000125942
17821936 0.000364695 -0.000131687
17871440 0.00038221 -0.000155564
17920944 0.000367567 -0.000124283
17970448 0.000371731 -0.00014018
18019952 0.000378788 -0.000124171
18069456 0.000375 -0.000130427
18118960 0.000391791 -0.000142276
18168464 0.000394698 -0.000127892
18217968 0.000370661 -0.000108741
18267472 0.000394807 -0.000120867
18316976 0.000381239 -0.000137647
18366480 0.000391944 -0.000139966
18415984 0.000385981 -0.000140885
18465488 0.000379955 -0.000137361
18514992 0.000377376 -0.000150461
18564496 0.00037357 -0.00013362
18614000 0.000379887 -0.000121066
18663504 0.000383336 -0.000121764
18713008 0.000387175 -0.000135789
18762512 0.000377565 -0.000146774
18812016 0.000381838 -0.000156137
18861520 0.000393984 -0.000147971
18911024 0.000394584 -0.000125019
18960528 0.000399298 -0.000140704
19010032 0.000398981 -0.000148207
19059536 0.000399739 -0.000138964
19109040 0.000393096 -0.000144467
19158544 0.000377896 -0.000163325
19208048 0.000373515 -0.000152615
19257552 0.000381139 -0.000114251
19307056 0.000380854 -0.000148699
19356560 0.000389716 -0.000127453
19406064 0.000394084 -0.000143537
19455568 0.000392678 -0.000153862
19505072 0.000389248 -0.000143248
19554576 0.000398566 -0.000137367
19604080 0.000386209 -0.000127624
19653584 0.000394831 -0.000143258
19703088 0.000384587 -0.000137279
19752592 0.00037534 -0.000144157
19802096 0.000381223 -0.000148814
19851600 0.0003773 -0.000158351
19901104 0.000397066 -0.000140793
19950608 0.00040014 -0.000150384
20000112 0.000385709 -0.000165075
20049616 0.00039396 -0.000156896
20099120 0.000395346 -0.000153763
20148624 0.000395278 -0.000147916
20198128 0.000397981 -0.000156149
20247632 0.000396449 -0.000158434
20297136 0.000376004 -0.000163487
20346640 0.00039694 -0.000144699
20396144 0.000390162 -0.000173365
20445648 0.000374606 -0.000154207
20495152 0.000388099 -0.000151446
20544656 0.000380848 -0.000144529
20594160 0.00038649 -0.00017533
20643664 0.000377888 -0.000143117
20693168 0.000376667 -0.000158871
20742672 0.000389754 -0.000149608
20792176 0.000385982 -0.000166346
20841680 0.000388442 -0.000151567
20891184 0.000397488 -0.000166581
20940688 0.000396596 -0.000140002
20990192 0.000404889 -0.000138416
21039696 0.000394088 -0.000167155
21089200 0.000413116 -0.000164119
21138704 0.000404107 -0.000167271
21188208 0.000387876 -0.000169461
21237712 0.00040007 -0.000170765
21287216 0.00038722 -0.000163207
21336720 0.000390913 -0.000169927
21386224 0.000399657 -0.000170773
21435728 0.000398707 -0.000176781
21485232 0.00039032 -0.000196097
21534736 0.000397526 -0.000167498
21584240 0.000384884 -0.000185439
21633744 0.000392724 -0.000168685
21683248 0.000398627 -0.000182875
21732752 0.000375382 -0.000153827
21782256 0.000400766 -0.000161423
21831760 0.000413017 -0.000167959
21881264 0.000404218 -0.000180846
21930768 0.000403486 -0.000185379
21980272 0.000395076 -0.000169204
22029776 0.000408177 -0.000181241
22079280 0.000398318 -0.000190309
22128784 0.000402504 -0.000184013
22178288 0.000378418 -0.000184764
22227792 0.000398162 -0.000175436
22277296 0.000395985 -0.000198124
22326800 0.000400433 -0.000175961
22376304 0.000410783 -0.000180741
22425808 0.000392361 -0.000197566
22475312 0.000393743 -0.000181493
22524816 0.000398592 -0.000183862
22574320 0.000399709 -0.000182609
22623824 0.000405658 -0.000185178
22673328 0.000407456 -0.000178818
22722832 0.000403737 -0.000192776
22772336 0.000413841 -0.000190583
22821840 0.00039601 -0.000195254
22871344 0.000398384 -0.000183343
22920848 0.000379967 -0.00018572
22970352 0.00040129 -0.000176003
23019856 0.000418293 -0.000203546
23069360 0.000404695 -0.000197253
23118864 0.00039988 -0.00019576
23168368 0.000384983 -0.00020246
23217872 0.000406986 -0.000198922
23267376 0.00040634 -0.000180386
23316880 0.000408311 -0.000172915
23366384 0.000415219 -0.00019436
23415888 0.000403888 -0.000207386
23465392 0.000386446 -0.000186063
23514896 0.000384368 -0.000206477
23564400 0.000390185 -0.000201183
23613904 0.000410074 -0.000220967
23663408 0.000410321 -0.000183199
23712912 0.000395491 -0.000202532
23762416 0.000416777 -0.000199796
23811920 0.000418148 -0.000195048
23861424 0.000404645 -0.000193814
23910928 0.000404556 -0.000210355
23960432 0.0004126 -0.000210217
24009936 0.00041234 -0.00019686
24059440 0.000402958 -0.000203255
24108944 0.000404778 -0.000202568
24158448 0.000395649 -0.000179255
24207952 0.000412463 -0.000201439
24257456 0.000423609 -0.000190474
24306960 0.00041345 -0.000199864
24356464 0.000420784 -0.000207213
24405968 0.000421818 -0.000216715
24455472 0.000406362 -0.000225259
24504976 0.000399549 -0.000214912
24554480 0.000395005 -0.000222523
24603984 0.000405616 -0.000213873
24653488 0.000429952 -0.000216342
24702992 0.000403923 -0.000224402
24752496 0.000414311 -0.000223093
24802000 0.000400322 -0.00020726
24851504 0.000437564 -0.000211844
24901008 0.00041531 -0.000214302
24950512 0.000414108 -0.000196519
25000016 0.000431622 -0.000214891
25049520 0.000420072 -0.000227559
25099024 0.000398178 -0.000221821
25148528 0.000415515 -0.000209315
25198032 0.000408582 -0.000210644
25247536 0.000413067 -0.000233834
25297040 0.000398041 -0.000210046
25346544 0.000400903 -0.000204927
25396048 0.000408317 -0.000210135
25445552 0.000392892 -0.000232689
25495056 0.000402942 -0.000216217
25544560 0.000410469 -0.00020517
25594064 0.000434891 -0.000219706
25643568 0.000426539 -0.00024841
25693072 0.000412224 -0.00023689
25742576 0.00041324 -0.000222259
25792080 0.000426931 -0.000224724
25841584 0.000410472 -0.000229954
25891088 0.000415768 -0.000234085
25940592 0.000401673 -0.000228392
25990096 0.000406754 -0.00022169
26039600 0.000420134 -0.000220942
26089104 0.000429298 -0.000212099
26138608 0.000414287 -0.000227904
26188112 0.000415905 -0.000230837
26237616 0.000424077 -0.000236764
26287120 0.000402726 -0.000223059
26336624 0.000415503 -0.000242438
26386128 0.000424115 -0.000245057
26435632 0.000415677 -0.000247029
26485136 0.000414748 -0.0002436
26534640 0.000443746 -0.000231892
26584144 0.000433515 -0.000221898
26633648 0.000404649 -0.000232539
26683152 0.000404013 -0.000244928
26732656 0.000411421 -0.000233739
26782160 0.000422331 -0.00023182
26831664 0.000434115 -0.000262831
26881168 0.000450252 -0.000230732
26930672 0.000398171 -0.000255782
26980176 0.000420097 -0.0002491
27029680 0.000419952 -0.000220002
27079184 0.00042004 -0.000243021
27128688 0.000400109 -0.000238124
27178192 0.000429211 -0.000233062
27227696 0.000439496 -0.00023839
27277200 0.000417795 -0.000248938
27326704 0.000432215 -0.000255698
27376208 0.000440351 -0.000240078
27425712 0.000411108 -0.000224652
27475216 0.00042124 -0.000246663
27524720 0.000410267 -0.000241462
27574224 0.000404288 -0.000237745
27623728 0.000427503 -0.000246382
27673232 0.000424005 -0.000236163
27722736 0.000408396 -0.00024757
27772240 0.000424834 -0.000252005
27821744 0.00042734 -0.000232972
27871248 0.000406706 -0.000255123
27920752 0.000420035 -0.000241153
27970256 0.000430458 -0.000273016
28019760 0.000415718 -0.000276058
28069264 0.00041162 -0.000251766
28118768 0.000433512 -0.000265398
28168272 0.000434497 -0.000253527
28217776 0.000433681 -0.000265711
28267280 0.000433208 -0.000264027
28316784 0.000423071 -0.000272496
28366288 0.000425536 -0.000241673
28415792 0.000400728 -0.000257333
28465296 0.000425674 -0.000259055
28514800 0.000418343 -0.000262438
28564304 0.000419986 -0.000272614
28613808 0.00040708 -0.000235819
28663312 0.000432875 -0.000261762
28712816 0.000417833 -0.000279175
28762320 0.000412209 -0.000275179
28811824 0.000425996 -0.000257712
28861328 0.000422828 -0.00026706
28910832 0.000413278 -0.000257599
28960336 0.000430841 -0.000266464
29009840 0.000416534 -0.000273129
29059344 0.000428255 -0.000270427
29108848 0.000428704 -0.000274468
29158352 0.000423452 -0.000270996
29207856 0.000411515 -0.000261609
29257360 0.000433405 -0.000280499
29306864 0.000435623 -0.000279832
29356368 0.000432265 -0.000278164
29405872 0.000425636 -0.000276074
29455376 0.000424845 -0.000272141
29504880 0.000431573 -0.000271026
29554384 0.000426222 -0.00026408
29603888 0.000410313 -0.000283731
29653392 0.00043856 -0.000269958
29702896 0.000440463 -0.000293034
29752400 0.000425763 -0.000271902
29801904 0.000425074 -0.000263866
29851408 0.000426813 -0.000269978
29900912 0.00043179 -0.000268735
29950416 0.000424571 -0.000286977
29999920 0.000425802 -0.000283152
30049424 0.000411178 -0.000265353
30098928 0.000435363 -0.000268414
30148432 0.00043252 -0.000278166
30197936 0.000425462 -0.000282005
30247440 0.000422819 -0.000282185
30296944 0.000440765 -0.000276702
