# HZ S RI R 50
50000 0.085511184 0.000223042
99504 0.085480664 -0.000102929
149008 0.085464608 -0.000272791
198512 0.085495304 -0.000362349
248016 0.085478184 -0.000448347
297520 0.085470704 -0.000508421
347024 0.085476032 -0.000594147
396528 0.08547248 -0.000645242
446032 0.085468648 -0.000684747
495536 0.085465656 -0.000709112
545040 0.085446384 -0.000787087
594544 0.08545096 -0.000854685
644048 0.0854658 -0.000871951
693552 0.085432168 -0.000945748
743056 0.085432912 -0.000967647
792560 0.085443936 -0.001022974
842064 0.085437032 -0.001071557
891568 0.085416304 -0.001125904
941072 0.085444752 -0.001122836
990576 0.085422864 -0.001187845
1040080 0.085438136 -0.001248353
1089584 0.085419904 -0.001292197
1139088 0.085424496 -0.001302334
1188592 0.085416912 -0.001370793
1238096 0.085447144 -0.001407764
1287600 0.085414832 -0.001441255
1337104 0.085404168 -0.001486681
1386608 0.085451592 -0.001555901
1436112 0.0853968 -0.001567408
1485616 0.085392504 -0.001628978
1535120 0.085393456 -0.001661574
1584624 0.085398648 -0.001719694
1634128 0.08537644 -0.001785403
1683632 0.085362336 -0.001788539
1733136 0.085410584 -0.00180512
1782640 0.085387496 -0.001857857
1832144 0.085375976 -0.001927864
1881648 0.08536676 -0.001931208
1931152 0.08537272 -0.001999324
1980656 0.085375112 -0.002039986
2030160 0.085384184 -0.002053022
2079664 0.085370224 -0.002106475
2129168 0.085368672 -0.002142016
2178672 0.08537944 -0.002182278
2228176 0.085381784 -0.002220237
2277680 0.085351352 -0.002276229
2327184 0.085349392 -0.002334327
2376688 0.085336976 -0.002376635
2426192 0.08532276 -0.002397838
2475696 0.085349896 -0.002433079
2525200 0.085340888 -0.002461719
2574704 0.085331816 -0.002539312
2624208 0.085310288 -0.002587331
2673712 0.085296712 -0.002578299
2723216 0.085343496 -0.002636911
2772720 0.085314128 -0.002666851
2822224 0.085308592 -0.002729604
2871728 0.085278784 -0.00275565
2921232 0.085317896 -0.002804012
2970736 0.085290264 -0.002835216
3020240 0.085295912 -0.002898782
3069744 0.085284048 -0.002910628
3119248 0.085286912 -0.002965039
3168752 0.085289192 -0.00299285
3218256 0.085283256 -0.003030856
3267760 0.085284936 -0.003074638
3317264 0.085305872 -0.003115932
3366768 0.08528068 -0.003154706
3416272 0.085276168 -0.003197053
3465776 0.085292328 -0.003229549
3515280 0.0852626 -0.003281435
3564784 0.085263416 -0.003341272
3614288 0.085246528 -0.003369485
3663792 0.085252872 -0.003391984
3713296 0.08526644 -0.003465234
3762800 0.0852614 -0.003472443
3812304 0.085264888 -0.003500448
3861808 0.085249656 -0.003558345
3911312 0.085249864 -0.003603056
3960816 0.085246632 -0.003637258
4010320 0.085262472 -0.003649912
4059824 0.085234632 -0.003744183
4109328 0.085217896 -0.003773569
4158832 0.085226768 -0.003785579
4208336 0.085235664 -0.003832636
4257840 0.085245656 -0.003858042
4307344 0.08521188 -0.003904316
4356848 0.085213896 -0.003972911
4406352 0.085228072 -0.003996965
4455856 0.085199064 -0.004029637
4505360 0.08520908 -0.004047466
4554864 0.085208568 -0.004131332
4604368 0.085173928 -0.004155885
4653872 0.08517892 -0.004160601
4703376 0.08520512 -0.004208586
4752880 0.085184624 -0.004259494
4802384 0.085189664 -0.004285228
4851888 0.085175928 -0.004351011
4901392 0.085168432 -0.004398363
4950896 0.085174072 -0.004411078
5000400 0.085181624 -0.004466384
5049904 0.08516908 -0.004486115
5099408 0.08516116 -0.004518122
5148912 0.085148864 -0.004562292
5198416 0.085167872 -0.004600939
5247920 0.085156472 -0.004668793
5297424 0.085158656 -0.004692202
5346928 0.085127832 -0.004737613
5396432 0.085140952 -0.004755244
5445936 0.085134784 -0.004801282
5495440 0.085141912 -0.00482163
5544944 0.085151624 -0.004893307
5594448 0.085122592 -0.00493851
5643952 0.085134864 -0.004968078
5693456 0.085123816 -0.004992404
5742960 0.085114472 -0.005008744
5792464 0.08512084 -0.005060095
5841968 0.08511256 -0.005089026
5891472 0.085092728 -0.005134471
5940976 0.085111224 -0.005152487
5990480 0.085121968 -0.005165691
6039984 0.085145696 -0.005176735
6089488 0.085169712 -0.005235158
6138992 0.085197856 -0.005244468
6188496 0.085253648 -0.005197524
6238000 0.085363552 -0.005210312
6287504 0.085412496 -0.005202267
6337008 0.085511312 -0.005225851
6386512 0.08559624 -0.005266362
6436016 0.085598184 -0.005411078
6485520 0.085562824 -0.005488034
6535024 0.085468256 -0.005611997
6584528 0.085391376 -0.005658687
6634032 0.085345208 -0.005751069
6683536 0.085294728 -0.005788533
6733040 0.085292872 -0.00584493
6782544 0.08524432 -0.00590351
6832048 0.08522076 -0.00593734
6881552 0.085197352 -0.00598608
6931056 0.085180976 -0.006009728
6980560 0.085171192 -0.006057359
7030064 0.085167536 -0.006100648
7079568 0.085152064 -0.006152082
7129072 0.085146768 -0.006191397
7178576 0.08513304 -0.006216268
7228080 0.085127544 -0.006261467
7277584 0.085125304 -0.006293286
7327088 0.085102416 -0.006346032
7376592 0.085108016 -0.006384222
7426096 0.08510536 -0.006419103
7475600 0.085104256 -0.006464387
7525104 0.085087984 -0.00652856
7574608 0.085072408 -0.006534308
7624112 0.085071448 -0.006583066
7673616 0.085073888 -0.006610397
7723120 0.085081288 -0.006661923
7772624 0.085058376 -0.006696395
7822128 0.085049616 -0.006733272
7871632 0.085056912 -0.006752657
7921136 0.085072224 -0.006824176
7970640 0.085035496 -0.006838945
8020144 0.085018816 -0.006892889
8069648 0.085035296 -0.006937835
8119152 0.085031216 -0.006966747
8168656 0.085006216 -0.006998934
8218160 0.085040048 -0.007038951
8267664 0.085045816 -0.007093983
8317168 0.085010648 -0.007143959
8366672 0.085000656 -0.007195523
8416176 0.084999848 -0.007191326
8465680 0.085007128 -0.007264688
8515184 0.085025848 -0.007307568
8564688 0.085001048 -0.007312767
8614192 0.084967128 -0.007373665
8663696 0.084994504 -0.007394577
8713200 0.084984352 -0.007439965
8762704 0.084969504 -0.007493473
8812208 0.084951792 -0.007509636
8861712 0.084937656 -0.007553204
8911216 0.084946912 -0.007618765
8960720 0.084933432 -0.007635874
9010224 0.084930632 -0.007691957
9059728 0.084931288 -0.007704924
9109232 0.084955848 -0.007746536
9158736 0.084947792 -0.007813528
9208240 0.084933376 -0.007843804
9257744 0.084908632 -0.007859796
9307248 0.084928864 -0.007919061
9356752 0.08490912 -0.007950674
9406256 0.084917032 -0.0079899
9455760 0.084946472 -0.008016838
9505264 0.084909112 -0.008085023
9554768 0.084915608 -0.008108143
9604272 0.084895184 -0.008143976
9653776 0.084884328 -0.00817708
9703280 0.08492496 -0.008208364
9752784 0.084892888 -0.008271589
9802288 0.084866312 -0.008309368
9851792 0.084874936 -0.008333852
9901296 0.084896424 -0.008376851
9950800 0.084879536 -0.008428962
10000304 0.08487008 -0.008471296
10049808 0.084866688 -0.008516363
10099312 0.08485808 -0.008554308
10148816 0.084854816 -0.008580015
10198320 0.084851264 -0.008623465
10247824 0.084820688 -0.008643557
10297328 0.084844712 -0.008700588
10346832 0.084831488 -0.008754002
10396336 0.084844336 -0.008767035
10445840 0.0848236 -0.008814498
10495344 0.084804168 -0.008861802
10544848 0.08482924 -0.008890497
10594352 0.084830352 -0.008968191
10643856 0.0847972 -0.009024207
10693360 0.084783152 -0.009013873
10742864 0.084791144 -0.009039702
10792368 0.084812736 -0.009093141
10841872 0.084791456 -0.009147869
10891376 0.084789656 -0.009174183
10940880 0.084800976 -0.009207138
10990384 0.084790896 -0.009250944
11039888 0.084773816 -0.00929478
11089392 0.084787296 -0.009335268
11138896 0.084753088 -0.009401282
11188400 0.084766168 -0.009393052
11237904 0.084770224 -0.009432428
11287408 0.084753776 -0.009495202
11336912 0.08475332 -0.009558994
11386416 0.084754792 -0.009554871
11435920 0.084720048 -0.00959903
11485424 0.08473648 -0.009674182
11534928 0.084735032 -0.009664698
11584432 0.084701536 -0.009732339
11633936 0.084698688 -0.009769592
11683440 0.084690592 -0.00981262
11732944 0.084666944 -0.009843532
11782448 0.0846686 -0.009909096
11831952 0.084660104 -0.009943838
11881456 0.08469424 -0.009933
11930960 0.084684048 -0.010002963
11980464 0.084678864 -0.010045358
12029968 0.084679528 -0.010080877
12079472 0.084657616 -0.010130945
12128976 0.08467472 -0.010173252
12178480 0.08466036 -0.010171195
12227984 0.084659992 -0.010250091
12277488 0.084647368 -0.010304275
12326992 0.084617088 -0.010317775
12376496 0.084619504 -0.010360157
12426000 0.084659984 -0.010368369
12475504 0.084636824 -0.010448476
12525008 0.084624488 -0.010485086
12574512 0.084609536 -0.010528705
12624016 0.0846012 -0.010576779
12673520 0.084580904 -0.010592897
12723024 0.084601904 -0.010611366
12772528 0.084585624 -0.010662897
12822032 0.08458492 -0.010684035
12871536 0.084577264 -0.010751694
12921040 0.084583512 -0.01078447
12970544 0.084569392 -0.010838679
13020048 0.08458456 -0.010850237
13069552 0.084561504 -0.010901669
13119056 0.084542648 -0.010972734
13168560 0.08455888 -0.010983766
13218064 0.084574936 -0.011033195
13267568 0.084523376 -0.011096088
13317072 0.084531624 -0.011092051
13366576 0.084535312 -0.011136545
13416080 0.084535856 -0.011187662
13465584 0.08451132 -0.011239653
13515088 0.084477616 -0.01126593
13564592 0.084472776 -0.011293367
13614096 0.084505376 -0.011302469
13663600 0.08451964 -0.011374888
13713104 0.084488312 -0.011419781
13762608 0.08448884 -0.011452339
13812112 0.084487208 -0.011524151
13861616 0.084455528 -0.011523385
13911120 0.084503376 -0.011542511
13960624 0.084452176 -0.011615043
14010128 0.084451296 -0.011651355
14059632 0.084429952 -0.011690418
14109136 0.084446032 -0.011715567
14158640 0.084453856 -0.011756751
14208144 0.084422968 -0.011804879
14257648 0.084431168 -0.011858152
14307152 0.084417232 -0.011882418
14356656 0.084423848 -0.011922711
14406160 0.084399712 -0.011955732
14455664 0.084400144 -0.012006834
14505168 0.08438988 -0.012035191
14554672 0.084400536 -0.012080563
14604176 0.084388856 -0.012123505
14653680 0.084367592 -0.01216743
14703184 0.084376952 -0.012194415
14752688 0.08439308 -0.012234489
14802192 0.084379032 -0.0123022
14851696 0.084364992 -0.012313436
14901200 0.084372312 -0.012356623
14950704 0.084353576 -0.012424516
15000208 0.084314984 -0.01243233
15049712 0.084357456 -0.012471726
15099216 0.084344232 -0.012509022
15148720 0.084330376 -0.012540821
15198224 0.084295752 -0.012600505
15247728 0.0842908 -0.012645438
15297232 0.084271952 -0.012666155
15346736 0.08430268 -0.012699729
15396240 0.084276504 -0.012762578
15445744 0.084269512 -0.012773325
15495248 0.08427628 -0.012822009
15544752 0.084254768 -0.012871092
15594256 0.084253784 -0.012905311
15643760 0.084249216 -0.012931222
15693264 0.084271568 -0.012974704
15742768 0.084240888 -0.0130635
15792272 0.08422828 -0.013056149
15841776 0.084234584 -0.013091803
15891280 0.084220696 -0.013123481
15940784 0.084210728 -0.013172414
15990288 0.084236928 -0.013195022
16039792 0.084208272 -0.013281883
16089296 0.084190552 -0.013309366
16138800 0.084189872 -0.01334112
16188304 0.084181288 -0.013367253
16237808 0.084184688 -0.013405524
16287312 0.084168624 -0.013444882
16336816 0.084175632 -0.013503167
16386320 0.084156408 -0.013523825
16435824 0.084152944 -0.013581481
16485328 0.084128448 -0.013622426
16534832 0.084126064 -0.013640907
16584336 0.084134992 -0.013667831
16633840 0.084151288 -0.01370363
16683344 0.08412364 -0.013770837
16732848 0.084129128 -0.013839417
16782352 0.08412428 -0.013855672
16831856 0.084109288 -0.013898751
16881360 0.08408944 -0.013922706
16930864 0.084106656 -0.013939155
16980368 0.084089288 -0.014007202
17029872 0.084073872 -0.014070543
17079376 0.08406056 -0.014079298
17128880 0.084039248 -0.014113405
17178384 0.084052 -0.014140489
17227888 0.084022608 -0.014205882
17277392 0.084033496 -0.014225172
17326896 0.084057856 -0.014271681
17376400 0.084024392 -0.014307505
17425904 0.084002496 -0.014341658
17475408 0.084015816 -0.014385807
17524912 0.084005352 -0.014420691
17574416 0.083982744 -0.014474877
17623920 0.083970848 -0.014502973
17673424 0.084020088 -0.014528489
17722928 0.083949656 -0.014573812
17772432 0.083967864 -0.014617485
17821936 0.08397884 -0.014660556
17871440 0.083954744 -0.014680529
17920944 0.083965288 -0.014742141
17970448 0.083940064 -0.014804624
18019952 0.083922688 -0.014821582
18069456 0.083966304 -0.014858433
18118960 0.083931824 -0.014877697
18168464 0.083908968 -0.014930154
18217968 0.08391748 -0.014964205
18267472 0.083924624 -0.015029247
18316976 0.083879504 -0.015058248
18366480 0.08389816 -0.015072961
18415984 0.083888008 -0.015151057
18465488 0.08385516 -0.015174664
18514992 0.08387804 -0.015211374
18564496 0.083841576 -0.015253268
18614000 0.083849952 -0.015257906
18663504 0.083843272 -0.015318649
18713008 0.08384944 -0.015343007
18762512 0.083847672 -0.015394509
18812016 0.083816304 -0.01546348
18861520 0.083817168 -0.015478516
18911024 0.083809376 -0.015507901
18960528 0.083794016 -0.015554974
19010032 0.08376972 -0.015582283
19059536 0.083786608 -0.015640732
19109040 0.083784552 -0.015655667
19158544 0.08376972 -0.015713906
19208048 0.083748136 -0.015750062
19257552 0.083753776 -0.015802585
19307056 0.083742976 -0.015810445
19356560 0.08372668 -0.015860211
19406064 0.083714752 -0.015899131
19455568 0.083696816 -0.015960244
19505072 0.083704568 -0.016002234
19554576 0.083688864 -0.016041659
19604080 0.083696432 -0.016066691
19653584 0.083719264 -0.016123898
19703088 0.083693448 -0.016152244
19752592 0.083706416 -0.016165335
19802096 0.083679648 -0.016198471
19851600 0.083684152 -0.016252832
19901104 0.08364212 -0.01630397
19950608 0.083659696 -0.01636867
20000112 0.083652552 -0.016378222
20049616 0.083623376 -0.016382724
20099120 0.083641784 -0.01647098
20148624 0.083611032 -0.016508196
20198128 0.083590624 -0.016550751
20247632 0.083583048 -0.016544301
20297136 0.083605688 -0.016594213
20346640 0.083598856 -0.016665503
20396144 0.083583112 -0.016698504
20445648 0.083567032 -0.01672242
20495152 0.083563992 -0.016760755
20544656 0.083566312 -0.016796996
20594160 0.083561744 -0.016833626
20643664 0.083541824 -0.016887018
20693168 0.083539968 -0.01694722
20742672 0.083496416 -0.016979084
20792176 0.083504432 -0.016977734
20841680 0.083526328 -0.017036602
20891184 0.083488976 -0.017074964
20940688 0.083488496 -0.017110472
20990192 0.083484488 -0.017184636
21039696 0.08346184 -0.017180678
21089200 0.083443184 -0.01723206
21138704 0.08345328 -0.017260676
21188208 0.083427024 -0.017307228
21237712 0.083422056 -0.01734672
21287216 0.083436064 -0.017369566
21336720 0.08342888 -0.017434758
21386224 0.083427976 -0.017477192
21435728 0.083411752 -0.017533394
21485232 0.08339004 -0.017574412
21534736 0.083399328 -0.017611194
21584240 0.083382864 -0.017628842
21633744 0.083363872 -0.017643
21683248 0.083382456 -0.017717018
21732752 0.083332296 -0.01775079
21782256 0.083345144 -0.017752084
21831760 0.083352168 -0.017794572
21881264 0.083345104 -0.017842002
21930768 0.083344208 -0.017901472
21980272 0.08330656 -0.017939174
22029776 0.083317776 -0.017982672
22079280 0.08329344 -0.018012078
22128784 0.083293712 -0.018075582
22178288 0.083279136 -0.018122136
22227792 0.0832614 -0.018113768
22277296 0.083248112 -0.018164742
22326800 0.083285688 -0.018181028
22376304 0.083235648 -0.018237572
22425808 0.083232032 -0.018249214
22475312 0.083236624 -0.018312046
22524816 0.08323716 -0.018368636
22574320 0.08323088 -0.018422002
22623824 0.083233528 -0.01843043
22673328 0.083189664 -0.018471722
22722832 0.083196464 -0.018490294
22772336 0.083182352 -0.018564416
22821840 0.083195616 -0.018588108
22871344 0.08315432 -0.018613392
22920848 0.083165544 -0.018670262
22970352 0.083119808 -0.018700456
23019856 0.08315212 -0.018737072
23069360 0.083120736 -0.018768276
23118864 0.083147008 -0.018815306
23168368 0.0830952 -0.018875178
23217872 0.083117256 -0.018883102
23267376 0.083079408 -0.018919664
23316880 0.083067968 -0.018960838
23366384 0.083069624 -0.01900324
23415888 0.083071632 -0.019021004
23465392 0.083052208 -0.019082962
23514896 0.083041088 -0.019139398
23564400 0.083034168 -0.01916906
23613904 0.083008248 -0.019210454
23663408 0.083011952 -0.019250996
23712912 0.083018344 -0.019306278
23762416 0.083011728 -0.01932063
23811920 0.082992248 -0.019346098
23861424 0.082980976 -0.01940382
23910928 0.082961448 -0.019421946
23960432 0.082974792 -0.01948238
24009936 0.082940872 -0.019509164
24059440 0.082913048 -0.019553062
24108944 0.082924272 -0.0195915
24158448 0.082912808 -0.019655604
24207952 0.082933744 -0.01969129
24257456 0.08290976 -0.01970806
24306960 0.082885968 -0.01975771
24356464 0.082871176 -0.019800876
24405968 0.082881312 -0.019798174
24455472 0.082874056 -0.019859906
24504976 0.082867824 -0.019916386
24554480 0.082854864 -0.019930516
24603984 0.08285312 -0.019985306
24653488 0.082829664 -0.01999674
24702992 0.082838568 -0.020060914
24752496 0.082815736 -0.02009194
24802000 0.082809616 -0.020081022
24851504 0.082797704 -0.020148202
24901008 0.082773248 -0.020205584
24950512 0.082762888 -0.020274848
25000016 0.082781168 -0.020274172
25049520 0.082770448 -0.020315418
25099024 0.082753064 -0.020364804
25148528 0.082754832 -0.020383576
25198032 0.08273832 -0.020440138
25247536 0.082743456 -0.020491804
25297040 0.08273704 -0.020507078
25346544 0.082701992 -0.02054716
25396048 0.082702968 -0.02059075
25445552 0.082721952 -0.020623696
25495056 0.082660552 -0.020673444
25544560 0.082643432 -0.02067887
25594064 0.08264364 -0.020733372
25643568 0.082660552 -0.020778242
25693072 0.08264472 -0.020832998
25742576 0.08262296 -0.020862258
25792080 0.082620288 -0.020914202
25841584 0.082603008 -0.020933998
25891088 0.082596048 -0.020972214
25940592 0.082593776 -0.021003544
25990096 0.082594032 -0.021071342
26039600 0.082560896 -0.021095204
26089104 0.08255308 -0.021116218
26138608 0.082564648 -0.021157254
26188112 0.082565968 -0.021199014
26237616 0.082525424 -0.021243024
26287120 0.082528792 -0.021286918
26336624 0.08251288 -0.021334196
26386128 0.082504888 -0.021386664
26435632 0.082497232 -0.021410474
26485136 0.08246372 -0.02144728
26534640 0.082502344 -0.021468596
26584144 0.08244648 -0.02150938
26633648 0.082420112 -0.02156688
26683152 0.082460168 -0.02157425
26732656 0.082438992 -0.02164818
26782160 0.082442384 -0.0216848
26831664 0.08241848 -0.02168174
26881168 0.082396344 -0.021748862
26930672 0.082396408 -0.02176378
26980176 0.082370872 -0.021822026
27029680 0.082355384 -0.021856934
27079184 0.082384296 -0.021924514
27128688 0.082364624 -0.021918716
27178192 0.08232584 -0.021981592
27227696 0.08233424 -0.021997096
27277200 0.082338392 -0.022040218
27326704 0.082327368 -0.022089158
27376208 0.082292952 -0.02215188
27425712 0.082266752 -0.022172406
27475216 0.082250304 -0.022195424
27524720 0.0822906 -0.022227122
27574224 0.082267832 -0.022292506
27623728 0.082264688 -0.022326656
27673232 0.08223604 -0.022344746
27722736 0.0822336 -0.022420352
27772240 0.08221872 -0.022436428
27821744 0.082193648 -0.02247604
27871248 0.082179336 -0.022523786
27920752 0.08216688 -0.022576614
27970256 0.082161448 -0.022555648
28019760 0.082182536 -0.02263771
28069264 0.082143456 -0.022677204
28118768 0.082115632 -0.022696472
28168272 0.0821256 -0.022743764
28217776 0.082123432 -0.022765888
28267280 0.08211876 -0.022836664
28316784 0.082113464 -0.022865032
28366288 0.082075744 -0.022888048
28415792 0.082087328 -0.022948318
28465296 0.082082664 -0.022956234
28514800 0.08205336 -0.023009448
28564304 0.082066912 -0.023057844
28613808 0.082041512 -0.02308504
28663312 0.082051472 -0.023124956
28712816 0.082019368 -0.023176238
28762320 0.08200512 -0.023200968
28811824 0.08199452 -0.02325227
28861328 0.081963632 -0.023278122
28910832 0.081977696 -0.023342478
28960336 0.081952128 -0.023369576
29009840 0.081958152 -0.023393194
29059344 0.081953128 -0.023415744
29108848 0.081928392 -0.023494526
29158352 0.081923 -0.023496032
29207856 0.081901496 -0.023536084
29257360 0.08189764 -0.023584058
29306864 0.081858864 -0.023623676
29356368 0.081876992 -0.02364329
29405872 0.081869712 -0.02371633
29455376 0.081856136 -0.023753586
29504880 0.08184376 -0.02374982
29554384 0.081821256 -0.023827876
29603888 0.081805128 -0.023881664
29653392 0.081798664 -0.023900046
29702896 0.081846496 -0.023946994
