# HZ S RI R 50
50000 0.02834787 2.3828e-05
99504 0.028312708 -5.5776e-05
149008 0.02832976 -9.1318e-05
198512 0.028333848 -9.4768e-05
248016 0.028339006 -0.000130611
297520 0.028317696 -0.000144014
347024 0.028337732 -0.000161696
396528 0.028313602 -0.000160743
446032 0.028346152 -0.000185267
495536 0.028339968 -0.000191541
545040 0.02832797 -0.000236586
594544 0.028315486 -0.0002042
644048 0.028320746 -0.000229743
693552 0.028326536 -0.000231643
743056 0.028333488 -0.000253639
792560 0.028314632 -0.000232177
842064 0.028319084 -0.000262824
891568 0.02833029 -0.000294815
941072 0.028326448 -0.000282624
990576 0.028344504 -0.000278693
1040080 0.028332516 -0.000312759
1089584 0.028312716 -0.000303248
1139088 0.028330452 -0.000316207
1188592 0.028334184 -0.000328781
1238096 0.028317744 -0.000330548
1287600 0.028320082 -0.000338436
1337104 0.02831876 -0.000354771
1386608 0.028332834 -0.000361481
1436112 0.028337738 -0.000373341
1485616 0.028326912 -0.000394527
1535120 0.028313174 -0.000381089
1584624 0.028325756 -0.000423543
1634128 0.028327716 -0.000415349
1683632 0.0283148 -0.000422716
1733136 0.028324304 -0.000433418
1782640 0.028315862 -0.000448293
1832144 0.028319026 -0.000447201
1881648 0.028322272 -0.00046078
1931152 0.028311456 -0.000472642
1980656 0.028326222 -0.00049019
2030160 0.028312616 -0.000508183
2079664 0.02831796 -0.000496671
2129168 0.02831433 -0.000510339
2178672 0.02831247 -0.000506848
2228176 0.028338924 -0.000516028
2277680 0.02830984 -0.00053888
2327184 0.028324624 -0.000548801
2376688 0.028303702 -0.000560865
2426192 0.028303788 -0.000565407
2475696 0.028321256 -0.000577017
2525200 0.028294634 -0.000571288
2574704 0.028324774 -0.000591317
2624208 0.028295002 -0.000599502
2673712 0.028306344 -0.000601204
2723216 0.028313258 -0.000615976
2772720 0.028306558 -0.000626778
2822224 0.028309374 -0.00062241
2871728 0.028315414 -0.00065964
2921232 0.028308476 -0.000628027
2970736 0.02832111 -0.000664093
3020240 0.02831817 -0.000654512
3069744 0.02829075 -0.000666434
3119248 0.028304496 -0.000691519
3168752 0.028318408 -0.000710588
3218256 0.028303354 -0.000692756
3267760 0.028325774 -0.000719382
3317264 0.028313028 -0.000739386
3366768 0.028306044 -0.0007331
3416272 0.028289172 -0.000759363
3465776 0.028311848 -0.000758483
3515280 0.028288996 -0.000760419
3564784 0.028309526 -0.000789309
3614288 0.028304324 -0.000777767
3663792 0.028292424 -0.000786265
3713296 0.028327056 -0.000805142
3762800 0.028300478 -0.000807701
3812304 0.028302596 -0.000812737
3861808 0.028309386 -0.00082434
3911312 0.028291756 -0.000823064
3960816 0.028312558 -0.000831726
4010320 0.028300896 -0.000836605
4059824 0.02828559 -0.000857843
4109328 0.028303958 -0.000861595
4158832 0.028312622 -0.000863899
4208336 0.02830047 -0.000873445
4257840 0.02830477 -0.000899698
4307344 0.028308484 -0.000896759
4356848 0.028289242 -0.000899491
4406352 0.028307618 -0.00091368
4455856 0.028297058 -0.000929804
4505360 0.028302258 -0.000942258
4554864 0.028302992 -0.000956051
4604368 0.028290906 -0.000954399
4653872 0.028297188 -0.000955126
4703376 0.028297794 -0.000957343
4752880 0.028291886 -0.000977748
4802384 0.028292728 -0.000990703
4851888 0.02830884 -0.000990711
4901392 0.028302216 -0.001019641
4950896 0.02829557 -0.000998474
5000400 0.028300238 -0.001006538
5049904 0.028286124 -0.001050743
5099408 0.02829642 -0.001044423
5148912 0.028294168 -0.001046932
5198416 0.028282774 -0.001058102
5247920 0.028286968 -0.001070447
5297424 0.028282824 -0.001072614
5346928 0.028291878 -0.001078833
5396432 0.028294098 -0.001091237
5445936 0.028291012 -0.00111114
5495440 0.028286638 -0.00111469
5544944 0.028284062 -0.001110051
5594448 0.028305774 -0.001122332
5643952 0.028297472 -0.001134672
5693456 0.028302222 -0.001135541
5742960 0.028292322 -0.0011426
5792464 0.028294686 -0.001148349
5841968 0.028289848 -0.001164918
5891472 0.028272606 -0.001179219
5940976 0.028293136 -0.001173988
5990480 0.028276938 -0.001163178
6039984 0.028317606 -0.001167485
6089488 0.028333862 -0.001160846
6138992 0.028323314 -0.001151649
6188496 0.02837707 -0.001127519
6238000 0.02840217 -0.001134814
6287504 0.028440422 -0.001130931
6337008 0.028473304 -0.001131688
6386512 0.028485852 -0.001160154
6436016 0.02849844 -0.0012106
6485520 0.028482258 -0.001252788
6535024 0.028453066 -0.001272699
6584528 0.028439604 -0.00127958
6634032 0.028415408 -0.001301791
6683536 0.028380302 -0.001329938
6733040 0.028382332 -0.001337055
6782544 0.028368946 -0.001370009
6832048 0.028356818 -0.00135748
6881552 0.028355718 -0.001368136
6931056 0.028359674 -0.001383066
6980560 0.028344426 -0.001384825
7030064 0.028343074 -0.001403514
7079568 0.028361074 -0.00140747
7129072 0.02833499 -0.001427187
7178576 0.028331028 -0.001413697
7228080 0.028339432 -0.001440304
7277584 0.028352494 -0.001439209
7327088 0.028323612 -0.001468645
7376592 0.02832057 -0.001475074
7426096 0.02833074 -0.001476017
7475600 0.028331144 -0.001466565
7525104 0.028338766 -0.001518403
7574608 0.028334092 -0.00150954
7624112 0.02832778 -0.00152264
7673616 0.02832229 -0.001513051
7723120 0.028346162 -0.001527536
7772624 0.028319346 -0.001543423
7822128 0.028307828 -0.001566786
7871632 0.028304976 -0.001561331
7921136 0.028344768 -0.001568937
7970640 0.028321622 -0.001590474
8020144 0.028313624 -0.001570235
8069648 0.02834708 -0.001578021
8119152 0.028325526 -0.001608758
8168656 0.02831919 -0.001607872
8218160 0.028322758 -0.001624334
8267664 0.028324396 -0.001639619
8317168 0.028312216 -0.001646348
8366672 0.028329024 -0.001654038
8416176 0.028321054 -0.001658346
8465680 0.02831596 -0.001688566
8515184 0.028338256 -0.001672293
8564688 0.02831259 -0.001689103
8614192 0.02830733 -0.001706614
8663696 0.028306148 -0.001702873
8713200 0.028316334 -0.001735381
8762704 0.028295852 -0.001730652
8812208 0.028312604 -0.001721863
8861712 0.02833905 -0.001747405
8911216 0.028325248 -0.001751385
8960720 0.028322416 -0.001746839
9010224 0.028318194 -0.001777033
9059728 0.028303042 -0.001767996
9109232 0.028308502 -0.001774477
9158736 0.028320584 -0.001811883
9208240 0.028316888 -0.001791634
9257744 0.028316462 -0.001806461
9307248 0.028313304 -0.00180497
9356752 0.028309242 -0.00182046
9406256 0.028303796 -0.001831561
9455760 0.028313052 -0.001847954
9505264 0.028313808 -0.001865274
9554768 0.028316764 -0.001873003
9604272 0.028314046 -0.001882862
9653776 0.028318904 -0.001886097
9703280 0.028321486 -0.001881502
9752784 0.028307162 -0.001898768
9802288 0.028307202 -0.001907437
9851792 0.028316372 -0.00192206
9901296 0.028300452 -0.001930925
9950800 0.028295374 -0.001936383
10000304 0.028301662 -0.00195852
10049808 0.028315438 -0.001946082
10099312 0.028303492 -0.001960756
10148816 0.028321982 -0.001958414
10198320 0.028325734 -0.001988482
10247824 0.028310948 -0.001995444
10297328 0.028307622 -0.001992494
10346832 0.02831142 -0.001998627
10396336 0.02831541 -0.002027117
10445840 0.02830848 -0.002041816
10495344 0.028316222 -0.002033707
10544848 0.02832599 -0.002045032
10594352 0.028314576 -0.002063494
10643856 0.02829813 -0.002082932
10693360 0.02830217 -0.002061019
10742864 0.028305052 -0.002078325
10792368 0.02830204 -0.00210978
10841872 0.028305466 -0.0021143
10891376 0.028299654 -0.002098561
10940880 0.028335058 -0.002108189
10990384 0.02830779 -0.002149273
11039888 0.02829888 -0.002159408
11089392 0.028301288 -0.002143625
11138896 0.028305744 -0.002161593
11188400 0.028297072 -0.00215712
11237904 0.028296078 -0.002165572
11287408 0.028309246 -0.002186102
11336912 0.028314328 -0.00218045
11386416 0.028323996 -0.00222303
11435920 0.028311944 -0.002203681
11485424 0.028299572 -0.002245784
11534928 0.02829137 -0.002245084
11584432 0.0282979 -0.002224835
11633936 0.0282901 -0.00224447
11683440 0.02830642 -0.002237193
11732944 0.02831138 -0.002252758
11782448 0.028283574 -0.002302416
11831952 0.028299256 -0.002302612
11881456 0.028310824 -0.002289167
11930960 0.028314482 -0.002289103
11980464 0.028294008 -0.002327474
12029968 0.028297762 -0.002350406
12079472 0.028321112 -0.002344685
12128976 0.028262016 -0.00232905
12178480 0.028290688 -0.002347494
12227984 0.028288046 -0.002353599
12277488 0.028290994 -0.002353727
12326992 0.028303212 -0.002369084
12376496 0.028314302 -0.002390224
12426000 0.02832304 -0.00239165
12475504 0.028293768 -0.002414662
12525008 0.028302622 -0.002420553
12574512 0.028293634 -0.002419599
12624016 0.028279346 -0.00243207
12673520 0.028298246 -0.002444705
12723024 0.028299368 -0.002459472
12772528 0.028314712 -0.002440095
12822032 0.028299778 -0.002464059
12871536 0.028288806 -0.002478769
12921040 0.028299218 -0.002496638
12970544 0.028285102 -0.002513543
13020048 0.028290264 -0.002504401
13069552 0.028291068 -0.00251651
13119056 0.02830044 -0.002545216
13168560 0.028324194 -0.002529553
13218064 0.028314986 -0.002532154
13267568 0.02830641 -0.002562424
13317072 0.02827973 -0.002570318
13366576 0.02829223 -0.002572366
13416080 0.028298904 -0.002589074
13465584 0.028304742 -0.00258328
13515088 0.028309592 -0.002609893
13564592 0.028281622 -0.002601472
13614096 0.028294844 -0.002599627
13663600 0.028305196 -0.002626332
13713104 0.028287136 -0.002640467
13762608 0.028293048 -0.002634723
13812112 0.028297294 -0.002652085
13861616 0.028287386 -0.002658428
13911120 0.028288422 -0.002667852
13960624 0.028304604 -0.002675331
14010128 0.028293676 -0.002712211
14059632 0.028275246 -0.002684673
14109136 0.028281048 -0.002704267
14158640 0.028282886 -0.002698706
14208144 0.02830501 -0.002722641
14257648 0.028306626 -0.002724869
14307152 0.028292584 -0.002757755
14356656 0.028292506 -0.002760935
14406160 0.028284308 -0.002768517
14455664 0.028286402 -0.00276061
14505168 0.028278036 -0.002762257
14554672 0.028292984 -0.002787191
14604176 0.02829856 -0.002791749
14653680 0.028293268 -0.002803488
14703184 0.028280264 -0.002820304
14752688 0.028273 -0.002827346
14802192 0.028299178 -0.002836847
14851696 0.028291316 -0.002859828
14901200 0.028281696 -0.002861879
14950704 0.028275792 -0.002880621
15000208 0.028282306 -0.002873841
15049712 0.02828973 -0.002877684
15099216 0.028300534 -0.002893561
15148720 0.028268332 -0.002899739
15198224 0.028293872 -0.00292309
15247728 0.028294718 -0.00292399
15297232 0.028289854 -0.002939725
15346736 0.028284392 -0.00294404
15396240 0.028302536 -0.002955648
15445744 0.028287156 -0.002986894
15495248 0.028275316 -0.002964703
15544752 0.02829224 -0.002975156
15594256 0.02826846 -0.00297166
15643760 0.028279054 -0.003008663
15693264 0.02829778 -0.003020939
15742768 0.02828572 -0.002995748
15792272 0.028292094 -0.003043513
15841776 0.028287154 -0.00304379
15891280 0.028309422 -0.003035342
15940784 0.02829355 -0.003047274
15990288 0.028288904 -0.00304608
16039792 0.02830739 -0.003062911
16089296 0.028265094 -0.00309742
16138800 0.028285856 -0.003079547
16188304 0.028282298 -0.003089025
16237808 0.028276316 -0.0031145
16287312 0.028259996 -0.00312007
16336816 0.028270978 -0.003131491
16386320 0.028276992 -0.003141324
16435824 0.02828662 -0.003135738
16485328 0.028287082 -0.003166254
16534832 0.028271252 -0.003169421
16584336 0.028281976 -0.003155403
16633840 0.02828776 -0.003160997
16683344 0.028278928 -0.003221051
16732848 0.02828018 -0.003191918
16782352 0.028288206 -0.003221125
16831856 0.0282808 -0.003207318
16881360 0.02829538 -0.003229417
16930864 0.028287352 -0.00322612
16980368 0.02827875 -0.003257469
17029872 0.028297292 -0.003256958
17079376 0.028271124 -0.003270424
17128880 0.028295458 -0.00327466
17178384 0.028271032 -0.003287851
17227888 0.028277716 -0.003295935
17277392 0.028285072 -0.003314146
17326896 0.028277902 -0.003322228
17376400 0.028270038 -0.003335856
17425904 0.02828723 -0.003314499
17475408 0.028289304 -0.003343196
17524912 0.028281364 -0.00335989
17574416 0.02827582 -0.003356392
17623920 0.02828758 -0.00335363
17673424 0.028276974 -0.003363001
17722928 0.028271432 -0.00339126
17772432 0.028277582 -0.003380399
17821936 0.028268158 -0.003414603
17871440 0.028268518 -0.003425037
17920944 0.028267172 -0.003408517
17970448 0.028253626 -0.003434625
18019952 0.028274976 -0.003449904
18069456 0.028244686 -0.003438261
18118960 0.028261662 -0.003448861
18168464 0.02826909 -0.003485302
18217968 0.02827692 -0.003502533
18267472 0.028269132 -0.003483371
18316976 0.028259352 -0.003480362
18366480 0.028271042 -0.003496557
18415984 0.028258726 -0.003504329
18465488 0.028268472 -0.003539137
18514992 0.028284708 -0.003559714
18564496 0.028276806 -0.003529786
18614000 0.028258544 -0.003555781
18663504 0.02828389 -0.003558072
18713008 0.02827631 -0.003557998
18762512 0.028293506 -0.003566103
18812016 0.028278168 -0.003585407
18861520 0.02825521 -0.003598279
18911024 0.028268714 -0.003615742
18960528 0.028280926 -0.003606879
19010032 0.028258962 -0.003617357
19059536 0.028274092 -0.003640405
19109040 0.028271388 -0.003656847
19158544 0.028254424 -0.003643664
19208048 0.028267146 -0.003664212
19257552 0.02825318 -0.003665256
19307056 0.028280452 -0.003694224
19356560 0.02826769 -0.003703069
19406064 0.028261162 -0.003698755
19455568 0.028264786 -0.003709481
19505072 0.0282584 -0.00370585
19554576 0.028268138 -0.003732307
19604080 0.028259818 -0.003730278
19653584 0.02824469 -0.00372548
19703088 0.02827579 -0.003760699
19752592 0.028271102 -0.003745369
19802096 0.028258714 -0.003769217
19851600 0.028261316 -0.003796685
19901104 0.028260582 -0.003803669
19950608 0.028278428 -0.003796514
20000112 0.028265612 -0.003799692
20049616 0.02826926 -0.003825951
20099120 0.028253464 -0.003843635
20148624 0.028247446 -0.003825697
20198128 0.028237082 -0.003852995
20247632 0.028268582 -0.00383799
20297136 0.028251614 -0.003859744
20346640 0.02826686 -0.003873231
20396144 0.0282632 -0.003893195
20445648 0.028244468 -0.003909396
20495152 0.028246644 -0.003905639
20544656 0.028251962 -0.003893073
20594160 0.028253192 -0.00390555
20643664 0.02825391 -0.003928597
20693168 0.028267582 -0.003953745
20742672 0.028252916 -0.003963417
20792176 0.028235304 -0.003942605
20841680 0.028253898 -0.003971925
20891184 0.02824788 -0.003958163
20940688 0.02823796 -0.003981362
20990192 0.02822505 -0.003994822
21039696 0.028244402 -0.003998411
21089200 0.02824926 -0.004018692
21138704 0.028244148 -0.00402073
21188208 0.028252634 -0.004026895
21237712 0.028261554 -0.004039322
21287216 0.02825029 -0.004054504
21336720 0.028259938 -0.004076595
21386224 0.028239348 -0.004070479
21435728 0.028262364 -0.004077258
21485232 0.02824545 -0.004082763
21534736 0.028237714 -0.00410668
21584240 0.028249678 -0.004105843
21633744 0.02824792 -0.004107306
21683248 0.028235658 -0.004137444
21732752 0.028242574 -0.004138694
21782256 0.02824413 -0.004136079
21831760 0.028223806 -0.004169729
21881264 0.028241504 -0.004166334
21930768 0.028243214 -0.004174001
21980272 0.028229962 -0.004194397
22029776 0.028255698 -0.004213769
22079280 0.02822666 -0.004180931
22128784 0.028228876 -0.004215796
22178288 0.028227086 -0.00421963
22227792 0.028239926 -0.004223449
22277296 0.028230016 -0.0042365
22326800 0.028268664 -0.004267422
22376304 0.028219854 -0.004273824
22425808 0.02823405 -0.004269931
22475312 0.028235324 -0.00428334
22524816 0.028235254 -0.004312668
22574320 0.02823857 -0.00431585
22623824 0.028240746 -0.004327653
22673328 0.028240222 -0.004319994
22722832 0.028241268 -0.0043247
22772336 0.028229974 -0.004322501
22821840 0.028237614 -0.004353238
22871344 0.02822432 -0.004349249
22920848 0.02822657 -0.004361595
22970352 0.028229356 -0.004378164
23019856 0.028204186 -0.004382529
23069360 0.028223072 -0.004388271
23118864 0.028233458 -0.004413488
23168368 0.028211374 -0.004408188
23217872 0.02823882 -0.004406942
23267376 0.028215204 -0.004437558
23316880 0.028221604 -0.004432575
23366384 0.028209404 -0.004449639
23415888 0.028225438 -0.004470167
23465392 0.028210896 -0.004480083
23514896 0.02821059 -0.004483544
23564400 0.02821872 -0.004491953
23613904 0.02820642 -0.004495025
23663408 0.028221702 -0.004526693
23712912 0.028208644 -0.004516913
23762416 0.028219342 -0.004516541
23811920 0.028221036 -0.004543957
23861424 0.028232186 -0.004543519
23910928 0.028217734 -0.004562753
23960432 0.02820404 -0.004568492
24009936 0.028216906 -0.004566709
24059440 0.028227374 -0.004588964
24108944 0.028222988 -0.00460407
24158448 0.028215834 -0.00460505
24207952 0.028211738 -0.004626525
24257456 0.028199012 -0.004615433
24306960 0.028202088 -0.004635259
24356464 0.028208118 -0.004627804
24405968 0.028211316 -0.004640752
24455472 0.028179506 -0.004665874
24504976 0.028192232 -0.004667375
24554480 0.028188562 -0.004672481
24603984 0.028194204 -0.004686455
24653488 0.028183954 -0.004700973
24702992 0.028185018 -0.004714192
24752496 0.02817468 -0.004714519
24802000 0.028181782 -0.004724763
24851504 0.028172358 -0.004732534
24901008 0.028184066 -0.004741893
24950512 0.028204774 -0.004734936
25000016 0.028189654 -0.004747745
25049520 0.028163278 -0.004754413
25099024 0.028174586 -0.004782833
25148528 0.028180508 -0.004742401
25198032 0.02820628 -0.004761459
25247536 0.028197448 -0.004785954
25297040 0.02819547 -0.004779244
25346544 0.028184698 -0.004806358
25396048 0.028188194 -0.004798878
25445552 0.028200216 -0.004837967
25495056 0.02820934 -0.004857688
25544560 0.028192324 -0.004853475
25594064 0.028200872 -0.004830254
25643568 0.028192474 -0.00485203
25693072 0.028193538 -0.004865342
25742576 0.02820963 -0.004876614
25792080 0.028184382 -0.004896268
25841584 0.028185104 -0.00489296
25891088 0.028205304 -0.004910311
25940592 0.028200304 -0.004912187
25990096 0.02822489 -0.004925665
26039600 0.02821386 -0.004937245
26089104 0.028187846 -0.004934334
26138608 0.028207616 -0.00496771
26188112 0.028207532 -0.004987689
26237616 0.028199622 -0.004971206
26287120 0.028208492 -0.004978271
26336624 0.028201214 -0.005009271
26386128 0.028187454 -0.005014061
26435632 0.02819223 -0.005001532
26485136 0.028183148 -0.00501692
26534640 0.028201802 -0.005043322
26584144 0.028219114 -0.005033722
26633648 0.028198828 -0.005063243
26683152 0.028210034 -0.005075634
26732656 0.02818497 -0.005073459
26782160 0.028195218 -0.005083519
26831664 0.028214484 -0.005096245
26881168 0.028191434 -0.005098848
26930672 0.028175734 -0.005118422
26980176 0.028192668 -0.005125424
27029680 0.028180926 -0.005123775
27079184 0.028182338 -0.005151052
27128688 0.02820106 -0.005136404
27178192 0.02819041 -0.005151924
27227696 0.02819112 -0.005168339
27277200 0.028195226 -0.005177363
27326704 0.028203004 -0.005200964
27376208 0.028186368 -0.005181128
27425712 0.028187296 -0.005203101
27475216 0.028195666 -0.005219459
27524720 0.028188298 -0.005233038
27574224 0.028199862 -0.00523048
27623728 0.028181294 -0.00525482
27673232 0.028172338 -0.005233371
27722736 0.028192116 -0.005264124
27772240 0.028175788 -0.005297819
27821744 0.028158654 -0.00528846
27871248 0.028174988 -0.00529873
27920752 0.02818884 -0.005319278
27970256 0.028176044 -0.005305952
28019760 0.028193328 -0.005306557
28069264 0.028181706 -0.005335676
28118768 0.02819582 -0.005329083
28168272 0.028170156 -0.005358798
28217776 0.028174866 -0.005352016
28267280 0.02819062 -0.00536995
28316784 0.028183098 -0.005379464
28366288 0.028180718 -0.005379042
28415792 0.028181048 -0.00538959
28465296 0.028199908 -0.005406723
28514800 0.028186284 -0.005435755
28564304 0.028169428 -0.005426314
28613808 0.028178732 -0.005435628
28663312 0.0281696 -0.005455905
28712816 0.028176812 -0.005461491
28762320 0.028161092 -0.005468398
28811824 0.028169244 -0.005459535
28861328 0.028170724 -0.005484851
28910832 0.028156428 -0.00549649
28960336 0.028190234 -0.005505577
29009840 0.028170626 -0.005519509
29059344 0.028173648 -0.005524613
29108848 0.028171122 -0.005531931
29158352 0.028178792 -0.005545063
29207856 0.028163434 -0.005561273
29257360 0.028180262 -0.005556293
29306864 0.028147496 -0.005585484
29356368 0.028170626 -0.005571582
29405872 0.028175176 -0.005577066
29455376 0.028177896 -0.005589586
29504880 0.028164206 -0.005614954
29554384 0.028153436 -0.005632087
29603888 0.028153606 -0.005633566
29653392 0.028163162 -0.005625802
29702896 0.028173106 -0.005634673
