# HZ S RI R 50
50000 0.04288662 9.0313e-05
99504 0.042863284 -7.5514e-05
149008 0.042846248 -0.000133754
198512 0.042872136 -0.000174857
248016 0.042865588 -0.000220389
297520 0.042843936 -0.000249176
347024 0.042847084 -0.000282076
396528 0.042862688 -0.000286693
446032 0.042845764 -0.000328429
495536 0.042837436 -0.000338515
545040 0.042852228 -0.000368267
594544 0.042830708 -0.000417552
644048 0.042850948 -0.000412695
693552 0.042859648 -0.000438181
743056 0.042848492 -0.000458537
792560 0.042845428 -0.000477859
842064 0.042817976 -0.000496825
891568 0.042852896 -0.000521138
941072 0.042837824 -0.000547004
990576 0.042856264 -0.000568758
1040080 0.042844892 -0.000586153
1089584 0.042868844 -0.000611962
1139088 0.042847408 -0.000633732
1188592 0.042842436 -0.00062103
1238096 0.042829952 -0.000678292
1287600 0.042820684 -0.000672825
1337104 0.042816216 -0.000712623
1386608 0.042856948 -0.00072633
1436112 0.042810488 -0.000726701
1485616 0.042825468 -0.000786678
1535120 0.04281 -0.000782284
1584624 0.04281828 -0.000831624
1634128 0.042816072 -0.000812231
1683632 0.04279742 -0.000842477
1733136 0.042837308 -0.000856696
1782640 0.04282232 -0.000885341
1832144 0.042799024 -0.000899671
1881648 0.04279718 -0.00089957
1931152 0.042816016 -0.000934197
1980656 0.04281462 -0.000967887
2030160 0.042822864 -0.000970359
2079664 0.042818352 -0.000988305
2129168 0.042810036 -0.001009876
2178672 0.042820852 -0.001036675
2228176 0.04281222 -0.001052609
2277680 0.04280792 -0.001046107
2327184 0.04281782 -0.001073852
2376688 0.042797956 -0.001106651
2426192 0.042799368 -0.001129907
2475696 0.042806504 -0.001126471
2525200 0.04278292 -0.001169684
2574704 0.042794252 -0.001173532
2624208 0.04280282 -0.00121947
2673712 0.0427748 -0.001232459
2723216 0.042798792 -0.001231606
2772720 0.04278674 -0.001266736
2822224 0.042781852 -0.001287086
2871728 0.042767464 -0.001303794
2921232 0.04279366 -0.00132089
2970736 0.0427949 -0.001337674
3020240 0.042772216 -0.001363611
3069744 0.042783168 -0.001354138
3119248 0.042769724 -0.001385049
3168752 0.04278588 -0.001420665
3218256 0.042780552 -0.001422758
3267760 0.04278286 -0.001434346
3317264 0.042760444 -0.001462114
3366768 0.042800592 -0.001492901
3416272 0.04276324 -0.001522403
3465776 0.042780652 -0.001493591
3515280 0.042771968 -0.001542146
3564784 0.042772396 -0.001559975
3614288 0.04275752 -0.001583739
3663792 0.042775964 -0.001590853
3713296 0.042781916 -0.001609399
3762800 0.042775756 -0.001627779
3812304 0.042763988 -0.001660768
3861808 0.042761716 -0.001688147
3911312 0.042751828 -0.001695834
3960816 0.042760756 -0.001704673
4010320 0.042750124 -0.001748073
4059824 0.042743096 -0.001745814
4109328 0.042750368 -0.001758768
4158832 0.04276928 -0.001784182
4208336 0.042749856 -0.001799293
4257840 0.042766232 -0.001809776
4307344 0.04275692 -0.001851183
4356848 0.042756712 -0.001850065
4406352 0.042744344 -0.001875892
4455856 0.042755212 -0.001909081
4505360 0.042725932 -0.001901942
4554864 0.042738776 -0.001931741
4604368 0.04274402 -0.00194281
4653872 0.042734972 -0.001950607
4703376 0.042738896 -0.001989405
4752880 0.042734916 -0.002013286
4802384 0.04274306 -0.002030895
4851888 0.04273724 -0.002044287
4901392 0.0427233 -0.002066543
4950896 0.04272994 -0.002072331
5000400 0.042727548 -0.002094337
5049904 0.042762948 -0.002122538
5099408 0.042716152 -0.002142456
5148912 0.042717156 -0.002155788
5198416 0.042734312 -0.002188668
5247920 0.042726336 -0.002181051
5297424 0.042746588 -0.002202225
5346928 0.04271488 -0.002223203
5396432 0.042716288 -0.002266034
5445936 0.042706072 -0.002254144
5495440 0.042722244 -0.002284623
5544944 0.0427145 -0.002288579
5594448 0.042683368 -0.002296069
5643952 0.04269722 -0.002331478
5693456 0.042702336 -0.002341545
5742960 0.042712532 -0.002355517
5792464 0.042714072 -0.002357867
5841968 0.042707656 -0.00238111
5891472 0.042725452 -0.002407391
5940976 0.042716396 -0.002413893
5990480 0.042735884 -0.002431788
6039984 0.042718948 -0.002436615
6089488 0.04274646 -0.00243171
6138992 0.04275854 -0.002417277
6188496 0.04280304 -0.002420616
6238000 0.04285722 -0.00240237
6287504 0.042903496 -0.002431383
6337008 0.042966644 -0.002436812
6386512 0.04297914 -0.002462289
6436016 0.04298178 -0.002519242
6485520 0.042976388 -0.002580121
6535024 0.042906792 -0.002633491
6584528 0.042886612 -0.002662757
6634032 0.042839208 -0.00270602
6683536 0.042823936 -0.002715569
6733040 0.042813292 -0.002750819
6782544 0.042794952 -0.002782345
6832048 0.042788976 -0.002773402
6881552 0.042760324 -0.002806815
6931056 0.04276836 -0.002819015
6980560 0.042762376 -0.002845497
7030064 0.042738528 -0.002883183
7079568 0.042751672 -0.002895424
7129072 0.042749256 -0.002948359
7178576 0.042729812 -0.002931726
7228080 0.042737312 -0.002955664
7277584 0.042715056 -0.002995623
7327088 0.04271744 -0.003009091
7376592 0.042705644 -0.003003831
7426096 0.04272444 -0.003027517
7475600 0.042734564 -0.003035113
7525104 0.042710544 -0.003071097
7574608 0.042710872 -0.003077498
7624112 0.042711712 -0.003115574
7673616 0.042682236 -0.003143262
7723120 0.042697344 -0.003147836
7772624 0.04271006 -0.003156425
7822128 0.04268098 -0.003188198
7871632 0.042686168 -0.003194932
7921136 0.042715032 -0.003207551
7970640 0.042705328 -0.003241765
8020144 0.042690424 -0.003267501
8069648 0.042696692 -0.003286078
8119152 0.042697632 -0.003273868
8168656 0.042677852 -0.003311566
8218160 0.042684396 -0.003331338
8267664 0.042695212 -0.003343247
8317168 0.042685288 -0.003373572
8366672 0.042682644 -0.003388903
8416176 0.042679948 -0.003387496
8465680 0.042670164 -0.003413291
8515184 0.042668784 -0.003460461
8564688 0.042664328 -0.003446955
8614192 0.042662228 -0.003482088
8663696 0.042670756 -0.003501961
8713200 0.042673068 -0.003497651
8762704 0.04266732 -0.003509269
8812208 0.042673724 -0.003549675
8861712 0.042668624 -0.003576858
8911216 0.042644916 -0.003612522
8960720 0.042662752 -0.003602343
9010224 0.04264598 -0.003636251
9059728 0.042649312 -0.003650489
9109232 0.042640108 -0.003645449
9158736 0.042634384 -0.003671658
9208240 0.042651096 -0.003686102
9257744 0.042664004 -0.003702616
9307248 0.042649832 -0.0037294
9356752 0.042639188 -0.003753707
9406256 0.042629728 -0.003780458
9455760 0.042623768 -0.003777737
9505264 0.042644172 -0.003812027
9554768 0.042618592 -0.00381475
9604272 0.042644176 -0.003848795
9653776 0.04261502 -0.003859868
9703280 0.042647092 -0.003863331
9752784 0.0426409 -0.003907206
9802288 0.042634804 -0.00392845
9851792 0.042593424 -0.003948713
9901296 0.042632516 -0.003970008
9950800 0.04263192 -0.003995818
10000304 0.042634824 -0.0039906
10049808 0.0426343 -0.004024062
10099312 0.042611384 -0.004038131
10148816 0.042620356 -0.004059123
10198320 0.042619 -0.004078867
10247824 0.042613428 -0.004100143
10297328 0.042606232 -0.004130543
10346832 0.042623 -0.004148267
10396336 0.042592756 -0.004151044
10445840 0.042590296 -0.004163451
10495344 0.042622556 -0.004175293
10544848 0.042598 -0.004205248
10594352 0.042587628 -0.004219617
10643856 0.042595584 -0.004220686
10693360 0.04258266 -0.00426695
10742864 0.042580172 -0.00428376
10792368 0.042573628 -0.004293163
10841872 0.042561236 -0.004324015
10891376 0.042581488 -0.004311447
10940880 0.042592028 -0.004355567
10990384 0.042583048 -0.004378241
11039888 0.042571564 -0.004376819
11089392 0.042578892 -0.00441109
11138896 0.042582224 -0.00444939
11188400 0.042563228 -0.004439245
11237904 0.04258482 -0.004449439
11287408 0.042576848 -0.004484317
11336912 0.04255218 -0.004517288
11386416 0.042575388 -0.004528015
11435920 0.042572968 -0.004527571
11485424 0.04256178 -0.004563273
11534928 0.042553352 -0.004588315
11584432 0.042551896 -0.004591276
11633936 0.042563548 -0.004595929
11683440 0.04255176 -0.004643874
11732944 0.042538044 -0.004654368
11782448 0.042565368 -0.004679538
11831952 0.042549588 -0.004693282
11881456 0.0425395 -0.004699399
11930960 0.042548056 -0.004726319
11980464 0.042552092 -0.004739875
12029968 0.042545436 -0.004762963
12079472 0.0425375 -0.0047871
12128976 0.042510836 -0.004804823
12178480 0.042524728 -0.004827986
12227984 0.04253594 -0.004814755
12277488 0.042538624 -0.004865345
12326992 0.042534428 -0.004861902
12376496 0.04251246 -0.004904828
12426000 0.042541568 -0.004908725
12475504 0.042514872 -0.004941215
12525008 0.042514936 -0.004944478
12574512 0.042503864 -0.004967581
12624016 0.042504816 -0.004978097
12673520 0.042499944 -0.005007936
12723024 0.042515384 -0.005020819
12772528 0.042506036 -0.00503877
12822032 0.042503732 -0.005059379
12871536 0.042499336 -0.005099276
12921040 0.042493864 -0.005115012
12970544 0.042494808 -0.005129688
13020048 0.04248844 -0.005119797
13069552 0.04248386 -0.005155358
13119056 0.042490396 -0.005174533
13168560 0.042501408 -0.005196108
13218064 0.04248466 -0.005218699
13267568 0.042482236 -0.005249038
13317072 0.042473004 -0.005247982
13366576 0.042487824 -0.005259945
13416080 0.042489484 -0.005294136
13465584 0.042453172 -0.005307427
13515088 0.042460808 -0.005311949
13564592 0.04248038 -0.005332492
13614096 0.042474676 -0.005350439
13663600 0.042465584 -0.005374751
13713104 0.0424673 -0.00540308
13762608 0.04244348 -0.005409813
13812112 0.042442432 -0.005435646
13861616 0.042473364 -0.005445528
13911120 0.042457376 -0.005475036
13960624 0.042449416 -0.005483444
14010128 0.042447448 -0.005497558
14059632 0.042448408 -0.005509562
14109136 0.042460788 -0.005550147
14158640 0.042453672 -0.005565262
14208144 0.042425528 -0.005599017
14257648 0.042419612 -0.00561225
14307152 0.042426968 -0.005624376
14356656 0.042448496 -0.005611421
14406160 0.04242138 -0.005651708
14455664 0.042432616 -0.005672491
14505168 0.042415776 -0.005727311
14554672 0.042413764 -0.005712522
14604176 0.04242088 -0.005720191
14653680 0.042433124 -0.005773374
14703184 0.04241996 -0.005784716
14752688 0.042404004 -0.005784938
14802192 0.042410308 -0.005803183
14851696 0.042416728 -0.005812334
14901200 0.042403016 -0.005846362
14950704 0.042421004 -0.005862649
15000208 0.04242094 -0.0058886
15049712 0.042429796 -0.005914638
15099216 0.04238482 -0.005929202
15148720 0.042383696 -0.005933011
15198224 0.0423943 -0.00594669
15247728 0.042391768 -0.005978256
15297232 0.042404144 -0.00599407
15346736 0.042379848 -0.006011594
15396240 0.042388288 -0.006018342
15445744 0.042366092 -0.006041237
15495248 0.042374952 -0.006038638
15544752 0.04236944 -0.006102422
15594256 0.042355296 -0.006107504
15643760 0.042353884 -0.006109571
15693264 0.042370784 -0.006138363
15742768 0.042362344 -0.006168735
15792272 0.04235466 -0.006170029
15841776 0.04236052 -0.00618687
15891280 0.042364752 -0.006213737
15940784 0.042350252 -0.006227249
15990288 0.042361884 -0.00625775
16039792 0.042333304 -0.00626824
16089296 0.042342192 -0.006293552
16138800 0.04233424 -0.006296348
16188304 0.042336264 -0.006350114
16237808 0.042342736 -0.006337967
16287312 0.042353792 -0.006381851
16336816 0.042343472 -0.006374295
16386320 0.042340252 -0.006413931
16435824 0.042331408 -0.006434596
16485328 0.0423225 -0.006450627
16534832 0.042307192 -0.006440509
16584336 0.042331476 -0.006469863
16633840 0.042318856 -0.006495817
16683344 0.042327564 -0.006517904
16732848 0.042308936 -0.006560469
16782352 0.042306132 -0.006555211
16831856 0.042302588 -0.006567734
16881360 0.042310144 -0.006576653
16930864 0.04231048 -0.00662405
16980368 0.042313556 -0.006627474
17029872 0.042298636 -0.006645853
17079376 0.042288184 -0.006652556
17128880 0.042284272 -0.006675903
17178384 0.04228934 -0.006692857
17227888 0.042283608 -0.006726397
17277392 0.042288424 -0.006726846
17326896 0.04227788 -0.006742923
17376400 0.042273088 -0.006786159
17425904 0.042262244 -0.006795112
17475408 0.04225898 -0.006793726
17524912 0.042273332 -0.006842368
17574416 0.042256448 -0.006847438
17623920 0.042256108 -0.00688076
17673424 0.042275444 -0.006874842
17722928 0.042263436 -0.006888462
17772432 0.042239864 -0.006924954
17821936 0.0422516 -0.006952441
17871440 0.042255016 -0.006984136
17920944 0.042222996 -0.00695845
17970448 0.042210044 -0.00698599
18019952 0.042243152 -0.007013078
18069456 0.042234592 -0.007028267
18118960 0.042219544 -0.007063397
18168464 0.042216096 -0.007071644
18217968 0.042241944 -0.007109652
18267472 0.042223848 -0.007096047
18316976 0.042205508 -0.007132128
18366480 0.042231168 -0.007135879
18415984 0.042236484 -0.007160048
18465488 0.04221278 -0.007176876
18514992 0.042212572 -0.007194555
18564496 0.042213232 -0.007209234
18614000 0.042201948 -0.007232789
18663504 0.042183788 -0.007261595
18713008 0.042196472 -0.007260761
18762512 0.04220734 -0.007295653
18812016 0.04217768 -0.007314971
18861520 0.04218888 -0.007304253
18911024 0.042180912 -0.007348342
18960528 0.042188492 -0.007371557
19010032 0.042171592 -0.007377974
19059536 0.042186008 -0.007416866
19109040 0.042173156 -0.007409614
19158544 0.042173012 -0.00743649
19208048 0.042159932 -0.007467098
19257552 0.042151736 -0.00747924
19307056 0.042145972 -0.007492405
19356560 0.042171568 -0.007523369
19406064 0.042142216 -0.007529536
19455568 0.042152536 -0.007558305
19505072 0.042157432 -0.007587258
19554576 0.042140668 -0.007606737
19604080 0.04213494 -0.007599797
19653584 0.042145316 -0.007631933
19703088 0.042138124 -0.007637375
19752592 0.042139092 -0.007665632
19802096 0.042137656 -0.007695646
19851600 0.042134436 -0.007684062
19901104 0.042106564 -0.007719275
19950608 0.042103924 -0.007737681
20000112 0.042107536 -0.007745466
20049616 0.04210154 -0.007772017
20099120 0.042100196 -0.00779048
20148624 0.042115068 -0.007816626
20198128 0.042090452 -0.007856828
20247632 0.042100324 -0.007844584
20297136 0.042098156 -0.007864997
20346640 0.042079864 -0.00788253
20396144 0.042074232 -0.007930041
20445648 0.042087244 -0.007920703
20495152 0.042078552 -0.007942424
20544656 0.042076756 -0.007961404
20594160 0.04208164 -0.007989647
20643664 0.042070632 -0.007985183
20693168 0.04205768 -0.008049128
20742672 0.042071296 -0.008023184
20792176 0.042090472 -0.008048237
20841680 0.042066732 -0.008059425
20891184 0.042077648 -0.008093686
20940688 0.04205988 -0.008121263
20990192 0.04206088 -0.008140554
21039696 0.0420484 -0.008142865
21089200 0.042044048 -0.008164244
21138704 0.042021808 -0.008193609
21188208 0.042016016 -0.008208541
21237712 0.042020372 -0.008238976
21287216 0.042047516 -0.008255619
21336720 0.042028972 -0.008266858
21386224 0.042011528 -0.008280798
21435728 0.042002512 -0.008291994
21485232 0.042008844 -0.008298191
21534736 0.042011544 -0.008310211
21584240 0.042021024 -0.008366088
21633744 0.042023608 -0.008377367
21683248 0.041984608 -0.008399809
21732752 0.042001332 -0.008418549
21782256 0.041997448 -0.00841147
21831760 0.042008412 -0.008437
21881264 0.041982388 -0.008458238
21930768 0.04197344 -0.00849274
21980272 0.041974104 -0.008506265
22029776 0.041976184 -0.008552844
22079280 0.041984396 -0.008552746
22128784 0.041977 -0.008585599
22178288 0.041960104 -0.00858835
22227792 0.041935924 -0.008570261
22277296 0.041954364 -0.008618692
22326800 0.041953868 -0.008634343
22376304 0.04194672 -0.008638108
22425808 0.041944452 -0.008679206
22475312 0.0419325 -0.008704506
22524816 0.041934288 -0.008713896
22574320 0.041929372 -0.00873689
22623824 0.041928904 -0.00875192
22673328 0.041928864 -0.008782038
22722832 0.041907288 -0.00879018
22772336 0.041920628 -0.008803225
22821840 0.04190888 -0.00881262
22871344 0.041909116 -0.008822435
22920848 0.041903432 -0.008846031
22970352 0.041923908 -0.008865603
23019856 0.041903028 -0.00890229
23069360 0.04189196 -0.008917582
23118864 0.041924408 -0.008932223
23168368 0.041898952 -0.008961274
23217872 0.041877044 -0.008982232
23267376 0.04188054 -0.009020747
23316880 0.04186952 -0.009014405
23366384 0.041856712 -0.009018706
23415888 0.041858632 -0.00905771
23465392 0.04187468 -0.009048134
23514896 0.041870016 -0.009096982
23564400 0.041858828 -0.00911268
23613904 0.0418653 -0.009131302
23663408 0.041837524 -0.009157649
23712912 0.041822016 -0.009150196
23762416 0.041868712 -0.009150271
23811920 0.041846104 -0.009183044
23861424 0.041843484 -0.009222584
23910928 0.041827048 -0.009222927
23960432 0.041820472 -0.009262413
24009936 0.041810448 -0.009264058
24059440 0.041802828 -0.009266554
24108944 0.041799412 -0.009300041
24158448 0.04181506 -0.009326923
24207952 0.041787428 -0.009359227
24257456 0.041794156 -0.009372068
24306960 0.041788512 -0.009382556
24356464 0.041756648 -0.009383243
24405968 0.041808644 -0.00941847
24455472 0.041758152 -0.009433835
24504976 0.041750888 -0.009447494
24554480 0.041762508 -0.009458559
24603984 0.041743752 -0.009489624
24653488 0.041738852 -0.009501856
24702992 0.041729644 -0.009538402
24752496 0.041721444 -0.009538264
24802000 0.04172744 -0.00956439
24851504 0.04172056 -0.009575877
24901008 0.041710524 -0.009589612
24950512 0.041725388 -0.009625916
25000016 0.041707344 -0.009624813
25049520 0.04172256 -0.00962837
25099024 0.041696032 -0.009648887
25148528 0.041700128 -0.009659162
25198032 0.041701688 -0.009676537
25247536 0.041700744 -0.009694497
25297040 0.041676944 -0.009718646
25346544 0.041704312 -0.009744017
25396048 0.041689016 -0.009749236
25445552 0.041707648 -0.009759931
25495056 0.041706336 -0.009774346
25544560 0.04167844 -0.009803883
25594064 0.041696192 -0.009806658
25643568 0.04169956 -0.009838773
25693072 0.041714884 -0.009860197
25742576 0.041676796 -0.009880265
25792080 0.0416823 -0.009891693
25841584 0.04166902 -0.00990751
25891088 0.04166702 -0.009970003
25940592 0.041701844 -0.009932829
25990096 0.041667832 -0.009965624
26039600 0.041672176 -0.009992244
26089104 0.041681644 -0.009999819
26138608 0.041640404 -0.01001465
26188112 0.041655216 -0.010034692
26237616 0.041643668 -0.010066704
26287120 0.041646272 -0.010102455
26336624 0.041651304 -0.010102705
26386128 0.04163402 -0.010121623
26435632 0.04164956 -0.010163735
26485136 0.041649948 -0.010160163
26534640 0.041621868 -0.010196344
26584144 0.041639668 -0.010187397
26633648 0.041615256 -0.010221497
26683152 0.041641124 -0.010242824
26732656 0.041622028 -0.010253334
26782160 0.041608228 -0.010265866
26831664 0.04161434 -0.010303327
26881168 0.041595276 -0.010310258
26930672 0.041596124 -0.010351074
26980176 0.041585232 -0.010348942
27029680 0.041584492 -0.010368939
27079184 0.041589028 -0.010380696
27128688 0.04157882 -0.010417452
27178192 0.041578256 -0.010437026
27227696 0.04157378 -0.010451083
27277200 0.04157392 -0.010472885
27326704 0.0415581 -0.01049242
27376208 0.041566244 -0.01051511
27425712 0.041563856 -0.010514745
27475216 0.041556592 -0.010525336
27524720 0.04155496 -0.010582272
27574224 0.04153192 -0.010578001
27623728 0.041534504 -0.01058697
27673232 0.04154058 -0.010593308
27722736 0.04152154 -0.010630361
27772240 0.041528048 -0.010649544
27821744 0.041530604 -0.010651665
27871248 0.041525768 -0.010691436
27920752 0.041509064 -0.010690694
27970256 0.041508624 -0.010720761
28019760 0.04149662 -0.010738161
28069264 0.041513232 -0.010773381
28118768 0.04148742 -0.010772998
28168272 0.041487608 -0.010779924
28217776 0.04148912 -0.010817334
28267280 0.041474196 -0.010819131
28316784 0.041498536 -0.010863528
28366288 0.041472468 -0.010864452
28415792 0.041488016 -0.010879739
28465296 0.041467412 -0.010930619
28514800 0.041466828 -0.010961766
28564304 0.041456988 -0.010962127
28613808 0.041448576 -0.010976213
28663312 0.041431728 -0.010984069
28712816 0.041457408 -0.011004595
28762320 0.041450568 -0.011031781
28811824 0.041443928 -0.011042682
28861328 0.041430692 -0.01105771
28910832 0.041426244 -0.011067205
28960336 0.041413776 -0.011107028
29009840 0.041408372 -0.011102336
29059344 0.041424852 -0.011136357
29108848 0.041411212 -0.01114253
29158352 0.041399384 -0.01115722
29207856 0.041421296 -0.011194598
29257360 0.041390236 -0.011195052
29306864 0.04138734 -0.011213336
29356368 0.041365292 -0.011229873
29405872 0.041382232 -0.011267285
29455376 0.041359684 -0.011270836
29504880 0.041374936 -0.011324165
29554384 0.04137196 -0.011312274
29603888 0.041359624 -0.011332542
29653392 0.041350092 -0.011349729
29702896 0.041358048 -0.011381106
