# HZ S RI R 50
50000 0.063011012 0.000140053
99504 0.062977196 -0.000105059
149008 0.062968568 -0.00020042
198512 0.062964676 -0.000281149
248016 0.062975064 -0.000315439
297520 0.062956944 -0.000390951
347024 0.062951608 -0.00043435
396528 0.062963068 -0.000486395
446032 0.062958948 -0.000513887
495536 0.062953608 -0.000565704
545040 0.062944644 -0.000577525
594544 0.062951884 -0.000604568
644048 0.062931016 -0.000673939
693552 0.06295482 -0.000683321
743056 0.062924036 -0.000727642
792560 0.062936044 -0.000755492
842064 0.062944152 -0.000814834
891568 0.06294062 -0.000817658
941072 0.062919332 -0.000846432
990576 0.06293916 -0.000900368
1040080 0.062945924 -0.000934859
1089584 0.062936476 -0.00098788
1139088 0.062911176 -0.000996587
1188592 0.062930936 -0.00101851
1238096 0.062947048 -0.001056968
1287600 0.062915088 -0.001083788
1337104 0.062918188 -0.001117591
1386608 0.062929092 -0.001157822
1436112 0.062916316 -0.001187051
1485616 0.062900768 -0.001223919
1535120 0.062916608 -0.001246441
1584624 0.062870836 -0.001306793
1634128 0.062887216 -0.001328713
1683632 0.062880404 -0.001364042
1733136 0.062897772 -0.001375021
1782640 0.062916772 -0.001411614
1832144 0.062890432 -0.001439881
1881648 0.062893012 -0.001474216
1931152 0.06287884 -0.001535644
1980656 0.0628741 -0.001522296
2030160 0.062897636 -0.001570707
2079664 0.0629178 -0.001587941
2129168 0.062908188 -0.001626121
2178672 0.062900132 -0.001669491
2228176 0.062881776 -0.001676957
2277680 0.062869728 -0.001727435
2327184 0.062859616 -0.001738229
2376688 0.062874184 -0.001789954
2426192 0.062857152 -0.001823466
2475696 0.062870532 -0.001834687
2525200 0.062858044 -0.001876203
2574704 0.06285376 -0.001919045
2624208 0.062861308 -0.001950008
2673712 0.062838524 -0.001962373
2723216 0.062851868 -0.00199551
2772720 0.062851944 -0.00201497
2822224 0.062834948 -0.002067745
2871728 0.062845664 -0.002103729
2921232 0.062840336 -0.002135733
2970736 0.062841564 -0.002143358
3020240 0.062834492 -0.002177938
3069744 0.062829056 -0.002232647
3119248 0.06283568 -0.002230267
3168752 0.062841856 -0.002270053
3218256 0.06282512 -0.002308086
3267760 0.062856108 -0.002339935
3317264 0.062831372 -0.002379927
3366768 0.062812984 -0.002412201
3416272 0.062800804 -0.002429307
3465776 0.062843756 -0.002442029
3515280 0.062800192 -0.002484135
3564784 0.06281908 -0.002499177
3614288 0.06280802 -0.002544964
3663792 0.062793076 -0.002598816
3713296 0.062824644 -0.002628961
3762800 0.062816032 -0.002635314
3812304 0.062796972 -0.002668645
3861808 0.062802272 -0.002691113
3911312 0.062792712 -0.002744965
3960816 0.06278734 -0.002759062
4010320 0.06279374 -0.002807886
4059824 0.062787996 -0.002844804
4109328 0.062781148 -0.002846838
4158832 0.062773124 -0.002864277
4208336 0.062788084 -0.002921317
4257840 0.062769672 -0.002922789
4307344 0.062799372 -0.002969352
4356848 0.062781588 -0.003015475
4406352 0.062770984 -0.003026113
4455856 0.0627781 -0.00306752
4505360 0.062766856 -0.003109001
4554864 0.062750296 -0.003131861
4604368 0.062769128 -0.003151773
4653872 0.062762612 -0.003191039
4703376 0.062746264 -0.003211279
4752880 0.0627584 -0.003242807
4802384 0.062757648 -0.00328054
4851888 0.062763268 -0.003298485
4901392 0.062724316 -0.003339306
4950896 0.06273544 -0.003357146
5000400 0.062730356 -0.003390127
5049904 0.062758624 -0.003425158
5099408 0.06273266 -0.003457287
5148912 0.062741124 -0.003475896
5198416 0.062743968 -0.003507661
5247920 0.06271512 -0.003541713
5297424 0.062728844 -0.003553992
5346928 0.062722372 -0.003618919
5396432 0.062712984 -0.003626655
5445936 0.062703916 -0.003670487
5495440 0.06272056 -0.003688939
5544944 0.062691504 -0.003706494
5594448 0.062686376 -0.003741263
5643952 0.062703884 -0.003759832
5693456 0.06268406 -0.003775675
5742960 0.062712572 -0.00380772
5792464 0.062696896 -0.00384199
5841968 0.062669748 -0.003861184
5891472 0.062685908 -0.003880424
5940976 0.062694796 -0.00391242
5990480 0.062690832 -0.003918658
6039984 0.062742552 -0.003940555
6089488 0.062746332 -0.003970663
6138992 0.062790616 -0.003971708
6188496 0.062799452 -0.003986824
6238000 0.062893084 -0.003944371
6287504 0.06294156 -0.003921286
6337008 0.063040332 -0.003980318
6386512 0.063083968 -0.004036552
6436016 0.063051156 -0.004106141
6485520 0.063047052 -0.004216974
6535024 0.062972544 -0.004278288
6584528 0.06291852 -0.004341843
6634032 0.062850276 -0.004371757
6683536 0.062852272 -0.00439565
6733040 0.06281568 -0.004472748
6782544 0.062819332 -0.004500138
6832048 0.062770636 -0.004533734
6881552 0.062757908 -0.004537588
6931056 0.06275356 -0.004581861
6980560 0.06274824 -0.004590709
7030064 0.062738672 -0.004650586
7079568 0.062721864 -0.004692392
7129072 0.062715532 -0.004734708
7178576 0.062713684 -0.004731811
7228080 0.062714228 -0.004764032
7277584 0.062712036 -0.004776124
7327088 0.062693708 -0.004840873
7376592 0.062706924 -0.004862441
7426096 0.062669628 -0.004893613
7475600 0.062703168 -0.00491838
7525104 0.062682576 -0.004961287
7574608 0.06264598 -0.004987243
7624112 0.062672304 -0.005002729
7673616 0.062673732 -0.005047388
7723120 0.062677764 -0.005078259
7772624 0.062652184 -0.005105665
7822128 0.062646808 -0.005124718
7871632 0.062657772 -0.005157264
7921136 0.062663928 -0.005192758
7970640 0.06264708 -0.005229284
8020144 0.062656232 -0.005251203
8069648 0.062636612 -0.005306937
8119152 0.062636876 -0.005296127
8168656 0.062618568 -0.005345843
8218160 0.062635528 -0.00537033
8267664 0.062628508 -0.005393726
8317168 0.062623264 -0.005413622
8366672 0.062631168 -0.005486916
8416176 0.062622608 -0.005494604
8465680 0.062613076 -0.005527013
8515184 0.062610908 -0.005564096
8564688 0.06260506 -0.005567288
8614192 0.062611884 -0.005626718
8663696 0.062602736 -0.005628127
8713200 0.062592232 -0.005683756
8762704 0.062575436 -0.005703248
8812208 0.062593624 -0.005724393
8861712 0.0625828 -0.005761495
8911216 0.062575764 -0.005797799
8960720 0.062586664 -0.005819612
9010224 0.062567896 -0.005867411
9059728 0.06256874 -0.005883345
9109232 0.062555076 -0.005928394
9158736 0.062547228 -0.005954538
9208240 0.062555724 -0.005956311
9257744 0.062552696 -0.005994775
9307248 0.062543132 -0.006038397
9356752 0.062542968 -0.006063434
9406256 0.06254822 -0.006103147
9455760 0.06254568 -0.006108469
9505264 0.062536388 -0.006152368
9554768 0.062547504 -0.006175363
9604272 0.0625254 -0.006251897
9653776 0.062522328 -0.006241495
9703280 0.06253726 -0.006239082
9752784 0.0625095 -0.006306701
9802288 0.062523128 -0.006328984
9851792 0.062530628 -0.006365157
9901296 0.062504908 -0.006397037
9950800 0.06251552 -0.006420874
10000304 0.062504872 -0.006458623
10049808 0.062503792 -0.006471538
10099312 0.062498488 -0.006510549
10148816 0.062508964 -0.006552657
10198320 0.062489072 -0.006580724
10247824 0.062474952 -0.006614962
10297328 0.062496648 -0.006653146
10346832 0.062490276 -0.006696844
10396336 0.062469976 -0.006693939
10445840 0.06246516 -0.00671692
10495344 0.0624831 -0.006755816
10544848 0.062478732 -0.006782993
10594352 0.06247052 -0.006819987
10643856 0.062448792 -0.006850232
10693360 0.062454148 -0.00688956
10742864 0.062434012 -0.006904835
10792368 0.062465876 -0.006928039
10841872 0.062464852 -0.006982303
10891376 0.062439136 -0.007001983
10940880 0.062443616 -0.007044766
10990384 0.062433976 -0.007070086
11039888 0.062407136 -0.00709979
11089392 0.06241806 -0.007131001
11138896 0.06240652 -0.007147645
11188400 0.062431372 -0.007157906
11237904 0.062436444 -0.00722353
11287408 0.06241218 -0.007264719
11336912 0.062396472 -0.007271967
11386416 0.06239116 -0.007301923
11435920 0.06239102 -0.007321855
11485424 0.062393656 -0.007368762
11534928 0.062397888 -0.007372448
11584432 0.062402928 -0.007424265
11633936 0.062392664 -0.007457943
11683440 0.062378284 -0.007482552
11732944 0.062377528 -0.007524874
11782448 0.062372168 -0.007563969
11831952 0.062374452 -0.007577012
11881456 0.062349548 -0.007605553
11930960 0.06236458 -0.007628412
11980464 0.062355008 -0.007657522
12029968 0.062360628 -0.007692818
12079472 0.062322864 -0.007717935
12128976 0.062351544 -0.007726366
12178480 0.062346616 -0.00777033
12227984 0.062336064 -0.007836843
12277488 0.062307508 -0.007852395
12326992 0.062330684 -0.007847049
12376496 0.062336232 -0.007917336
12426000 0.06231118 -0.007924696
12475504 0.06232102 -0.007974386
12525008 0.062326984 -0.007976721
12574512 0.062298892 -0.008028674
12624016 0.062310684 -0.00807738
12673520 0.06229628 -0.008106673
12723024 0.062278352 -0.008110306
12772528 0.06230722 -0.008143481
12822032 0.062294472 -0.008162535
12871536 0.062303504 -0.008196429
12921040 0.062271504 -0.00821844
12970544 0.062285584 -0.008263032
13020048 0.062298956 -0.008273666
13069552 0.062264532 -0.008329803
13119056 0.06226134 -0.008363134
13168560 0.062257984 -0.008383451
13218064 0.062254144 -0.008421356
13267568 0.062232968 -0.008450221
13317072 0.06225328 -0.008461797
13366576 0.0622536 -0.008518581
13416080 0.06224394 -0.008562267
13465584 0.062236036 -0.008573938
13515088 0.06224032 -0.008575658
13564592 0.062229072 -0.008629735
13614096 0.062216552 -0.008647427
13663600 0.06222998 -0.008669007
13713104 0.062207272 -0.008695105
13762608 0.062217332 -0.008727117
13812112 0.062191028 -0.008789754
13861616 0.062198156 -0.008830251
13911120 0.062216116 -0.008824409
13960624 0.06219172 -0.008852971
14010128 0.062214344 -0.008897888
14059632 0.0621859 -0.008949038
14109136 0.062164428 -0.008945615
14158640 0.06217862 -0.00898554
14208144 0.06216476 -0.009012629
14257648 0.062160076 -0.00905067
14307152 0.062161168 -0.009070886
14356656 0.062167964 -0.009110311
14406160 0.06216056 -0.00912536
14455664 0.062133464 -0.009184484
14505168 0.062126468 -0.009191222
14554672 0.062127428 -0.009225213
14604176 0.062121072 -0.009267143
14653680 0.06213246 -0.009270714
14703184 0.062123068 -0.009297075
14752688 0.062135756 -0.009336841
14802192 0.062115292 -0.009386811
14851696 0.06211812 -0.009420841
14901200 0.062120648 -0.009422748
14950704 0.062095304 -0.00948375
15000208 0.062081936 -0.009502823
15049712 0.062083524 -0.009538476
15099216 0.062078636 -0.009551005
15148720 0.06208628 -0.009571073
15198224 0.062066604 -0.009628087
15247728 0.062069948 -0.009657593
15297232 0.062058564 -0.009667188
15346736 0.062061872 -0.009702938
15396240 0.062065672 -0.009736396
15445744 0.062057644 -0.009756614
15495248 0.062024564 -0.009790165
15544752 0.062033192 -0.00982007
15594256 0.062030708 -0.009860655
15643760 0.062037388 -0.009889157
15693264 0.062016184 -0.00990385
15742768 0.062034436 -0.009946371
15792272 0.06203202 -0.009969808
15841776 0.061994428 -0.010016519
15891280 0.061992716 -0.010012424
15940784 0.062006896 -0.010036767
15990288 0.061992628 -0.010097275
16039792 0.062006272 -0.010138687
16089296 0.06196362 -0.010170799
16138800 0.061960184 -0.010186891
16188304 0.061944664 -0.010212145
16237808 0.061977412 -0.01021775
16287312 0.061966196 -0.010270778
16336816 0.06195278 -0.010305554
16386320 0.061954936 -0.010347331
16435824 0.061946712 -0.010364875
16485328 0.061945332 -0.010393606
16534832 0.061942456 -0.010426233
16584336 0.061966208 -0.010451043
16633840 0.061947536 -0.010494274
16683344 0.06192944 -0.010506578
16732848 0.061915456 -0.010548785
16782352 0.06191006 -0.010571698
16831856 0.061894212 -0.01058322
16881360 0.061909364 -0.010630567
16930864 0.061912712 -0.010655054
16980368 0.061888024 -0.010680774
17029872 0.061866684 -0.010721366
17079376 0.061876964 -0.010779459
17128880 0.061860008 -0.010796269
17178384 0.0618853 -0.010802786
17227888 0.061865056 -0.010864025
17277392 0.06185494 -0.010852376
17326896 0.061855236 -0.010898829
17376400 0.061830824 -0.010943992
17425904 0.061848348 -0.010953766
17475408 0.061845824 -0.010978667
17524912 0.061827836 -0.011025168
17574416 0.061829112 -0.011063085
17623920 0.061823784 -0.011089731
17673424 0.06182844 -0.011120195
17722928 0.061816764 -0.011149853
17772432 0.061787956 -0.011179049
17821936 0.06180168 -0.011201218
17871440 0.061800784 -0.011225119
17920944 0.061805952 -0.011255341
17970448 0.061777716 -0.011297605
18019952 0.061774028 -0.011324387
18069456 0.0617968 -0.011333574
18118960 0.061782876 -0.011364846
18168464 0.061730768 -0.011415195
18217968 0.061748572 -0.01142372
18267472 0.061751584 -0.011475287
18316976 0.061738692 -0.011492778
18366480 0.061726188 -0.01153582
18415984 0.061722744 -0.011568638
18465488 0.061714304 -0.011592072
18514992 0.0617033 -0.011600725
18564496 0.061713608 -0.011634844
18614000 0.061729556 -0.011675033
18663504 0.061698444 -0.011714229
18713008 0.061725052 -0.011735184
18762512 0.061698044 -0.011763765
18812016 0.061671228 -0.011787472
18861520 0.061668952 -0.011832345
18911024 0.061666592 -0.011856914
18960528 0.061666184 -0.011896566
19010032 0.061638528 -0.011901631
19059536 0.061649828 -0.011936933
19109040 0.061666572 -0.01196216
19158544 0.061646636 -0.012018591
19208048 0.061625508 -0.012028818
19257552 0.06162172 -0.012063133
19307056 0.061638636 -0.01211103
19356560 0.061614624 -0.012105213
19406064 0.061605748 -0.012171053
19455568 0.0616132 -0.012186468
19505072 0.061595984 -0.012210294
19554576 0.061607104 -0.012248019
19604080 0.061608956 -0.012282379
19653584 0.061603716 -0.012291796
19703088 0.061592504 -0.012345239
19752592 0.06156718 -0.012352051
19802096 0.061586436 -0.012380092
19851600 0.06157048 -0.01241617
19901104 0.061549516 -0.01246873
19950608 0.061557592 -0.012507752
20000112 0.061547816 -0.012517892
20049616 0.061504828 -0.012559696
20099120 0.061546508 -0.012568547
20148624 0.061526472 -0.012598511
20198128 0.061510044 -0.01265029
20247632 0.061505716 -0.012673943
20297136 0.06151012 -0.012673198
20346640 0.061502928 -0.01271522
20396144 0.06148762 -0.012767728
20445648 0.061467548 -0.012773055
20495152 0.061496856 -0.012815954
20544656 0.061489352 -0.012842219
20594160 0.061492676 -0.012874211
20643664 0.06146394 -0.012897437
20693168 0.06145812 -0.012953096
20742672 0.061460468 -0.012952166
20792176 0.061456928 -0.012994121
20841680 0.061441288 -0.013002152
20891184 0.061410216 -0.01305736
20940688 0.061407324 -0.013091818
20990192 0.06143738 -0.01313351
21039696 0.061424456 -0.013143924
21089200 0.061403972 -0.013182009
21138704 0.0613787 -0.013214111
21188208 0.06138158 -0.013229962
21237712 0.061383364 -0.013244674
21287216 0.061388872 -0.013269326
21336720 0.061384328 -0.013305537
21386224 0.061376812 -0.01335266
21435728 0.06137622 -0.013371764
21485232 0.061341808 -0.013411966
21534736 0.061343392 -0.013460085
21584240 0.061343004 -0.013465999
21633744 0.061337556 -0.013493
21683248 0.061320532 -0.013535393
21732752 0.061319772 -0.013565689
21782256 0.061313004 -0.01358279
21831760 0.061315384 -0.013623079
21881264 0.061308728 -0.013637868
21930768 0.061304528 -0.013667041
21980272 0.061276724 -0.013717981
22029776 0.061281788 -0.013760444
22079280 0.061274564 -0.013768647
22128784 0.061244652 -0.013807359
22178288 0.061240032 -0.013843035
22227792 0.061254888 -0.013837446
22277296 0.061246316 -0.013889812
22326800 0.0612452 -0.01394571
22376304 0.061218144 -0.013960212
22425808 0.061243832 -0.013966043
22475312 0.061226504 -0.013998267
22524816 0.061198064 -0.01404609
22574320 0.061185008 -0.014062612
22623824 0.061180676 -0.014110144
22673328 0.06116704 -0.014126062
22722832 0.061192248 -0.014139473
22772336 0.061174568 -0.014172804
22821840 0.06117352 -0.014218506
22871344 0.0611593 -0.014246559
22920848 0.061171732 -0.014273955
22970352 0.061154376 -0.014292056
23019856 0.061144796 -0.01433075
23069360 0.061153188 -0.014344772
23118864 0.06113308 -0.014392637
23168368 0.061115112 -0.014411446
23217872 0.061110424 -0.014459359
23267376 0.061111944 -0.014467818
23316880 0.061102932 -0.014505533
23366384 0.06111134 -0.014537085
23415888 0.061081376 -0.014572077
23465392 0.06109528 -0.014585652
23514896 0.061071332 -0.014628687
23564400 0.061074984 -0.014655327
23613904 0.061035576 -0.014698942
23663408 0.061027776 -0.014706967
23712912 0.061023424 -0.014748748
23762416 0.061051892 -0.014769942
23811920 0.061007068 -0.014798488
23861424 0.061001068 -0.014840063
23910928 0.061011264 -0.014866742
23960432 0.060999348 -0.014910459
24009936 0.060989456 -0.014928566
24059440 0.06097348 -0.014960802
24108944 0.060967936 -0.014987906
24158448 0.06094102 -0.015029515
24207952 0.060955212 -0.015065362
24257456 0.060933836 -0.015081309
24306960 0.060931068 -0.015109535
24356464 0.060912752 -0.015119134
24405968 0.060922384 -0.015145852
24455472 0.060908192 -0.015174471
24504976 0.060906376 -0.015209334
24554480 0.060894384 -0.015267129
24603984 0.060869084 -0.015267633
24653488 0.060859568 -0.015287051
24702992 0.060845136 -0.015331996
24752496 0.060824576 -0.015368474
24802000 0.060832696 -0.015365574
24851504 0.06082902 -0.01540752
24901008 0.060808104 -0.01544452
24950512 0.060806492 -0.015467667
25000016 0.060802312 -0.015484919
25049520 0.060826024 -0.015511158
25099024 0.060778716 -0.015541707
25148528 0.060807276 -0.015557266
25198032 0.060791976 -0.015583633
25247536 0.0607725 -0.015606874
25297040 0.060772572 -0.015627561
25346544 0.060773336 -0.015667012
25396048 0.060759496 -0.015705161
25445552 0.060745516 -0.015731767
25495056 0.060740232 -0.015768625
25544560 0.060741204 -0.015777262
25594064 0.060778996 -0.015801247
25643568 0.060739144 -0.01584881
25693072 0.060743588 -0.015884247
25742576 0.060744996 -0.015894854
25792080 0.060736124 -0.01593161
25841584 0.060726596 -0.015954362
25891088 0.060695644 -0.016025035
25940592 0.060696964 -0.016027343
25990096 0.060725052 -0.016056694
26039600 0.06068462 -0.016075956
26089104 0.060686512 -0.016097084
26138608 0.060688496 -0.016140591
26188112 0.060689264 -0.016175983
26237616 0.060656972 -0.016212478
26287120 0.060666992 -0.016234362
26336624 0.060632972 -0.016279392
26386128 0.060633576 -0.016328068
26435632 0.060644036 -0.016332788
26485136 0.060612488 -0.016366377
26534640 0.060645852 -0.016393727
26584144 0.06059454 -0.01641617
26633648 0.060590568 -0.016430538
26683152 0.06061172 -0.01646506
26732656 0.060587556 -0.016514549
26782160 0.060608456 -0.016509725
26831664 0.060565592 -0.01652661
26881168 0.060555196 -0.016597761
26930672 0.060558544 -0.016643815
26980176 0.060556164 -0.01666617
27029680 0.060536376 -0.016682332
27079184 0.060522256 -0.016726667
27128688 0.060529376 -0.01674309
27178192 0.060515744 -0.016787838
27227696 0.060503032 -0.016808586
27277200 0.060490884 -0.016819368
27326704 0.06049446 -0.016869612
27376208 0.060475564 -0.016883504
27425712 0.060473604 -0.01692671
27475216 0.060466372 -0.016953092
27524720 0.060462236 -0.016974846
27574224 0.060468176 -0.01699307
27623728 0.060459016 -0.017045494
27673232 0.060421656 -0.017066808
27722736 0.060455112 -0.017089302
27772240 0.060420232 -0.017136388
27821744 0.060411336 -0.017145374
27871248 0.060418544 -0.017193214
27920752 0.060394608 -0.017232052
27970256 0.060405868 -0.017232072
28019760 0.06038722 -0.017258224
28069264 0.060380996 -0.017297754
28118768 0.060372612 -0.017321116
28168272 0.060362408 -0.017366704
28217776 0.06035992 -0.017378976
28267280 0.060347924 -0.01742338
28316784 0.060337888 -0.017458232
28366288 0.060344164 -0.017463066
28415792 0.060324628 -0.017508708
28465296 0.060327196 -0.01754173
28514800 0.06027104 -0.017558316
28564304 0.060281384 -0.017598138
28613808 0.060298744 -0.017632014
28663312 0.060251804 -0.017653758
28712816 0.060265864 -0.017679518
28762320 0.060248544 -0.017707206
28811824 0.06025316 -0.017741806
28861328 0.06023368 -0.017756506
28910832 0.06022534 -0.017804314
28960336 0.060217352 -0.017820324
29009840 0.060215888 -0.017854738
29059344 0.060210568 -0.017887
29108848 0.060187908 -0.017916682
29158352 0.060201868 -0.01793774
29207856 0.060175868 -0.017981798
29257360 0.060184652 -0.018002958
29306864 0.060161328 -0.01805548
29356368 0.060158896 -0.018055642
29405872 0.060125856 -0.018109736
29455376 0.060126488 -0.018130186
29504880 0.0601317 -0.018160524
29554384 0.06009922 -0.018173888
29603888 0.060108532 -0.018226526
29653392 0.0601167 -0.018249692
29702896 0.060087388 -0.018267042
