# HZ S RI R 50
50000 -0.085251008 -0.000126358
99504 -0.085266552 0.000206537
149008 -0.085261096 0.000363182
198512 -0.085269656 0.000444347
248016 -0.085243552 0.00054811
297520 -0.0852444 0.000613908
347024 -0.085253568 0.000682426
396528 -0.085206736 0.00075272
446032 -0.085220856 0.00082355
495536 -0.085204632 0.000863198
545040 -0.085182432 0.00091518
594544 -0.085177496 0.000982061
644048 -0.085169304 0.001003913
693552 -0.08515132 0.001066261
743056 -0.085113 0.00114889
792560 -0.085114816 0.001154311
842064 -0.085084912 0.001239592
891568 -0.085119736 0.001256695
941072 -0.085090464 0.001319058
990576 -0.085109032 0.001364605
1040080 -0.085112312 0.001463124
1089584 -0.085095752 0.001471768
1139088 -0.085088704 0.001539521
1188592 -0.085114872 0.001550411
1238096 -0.085118016 0.00161343
1287600 -0.085134576 0.0016454
1337104 -0.085118496 0.001718251
1386608 -0.085129152 0.001769668
1436112 -0.08513448 0.001798382
1485616 -0.085142272 0.00182094
1535120 -0.085124608 0.001882315
1584624 -0.08511496 0.001943139
1634128 -0.085120944 0.00197356
1683632 -0.085126032 0.002015109
1733136 -0.08511908 0.002059824
1782640 -0.08513768 0.002120987
1832144 -0.085121496 0.002170395
1881648 -0.085113656 0.002190063
1931152 -0.08511624 0.002240552
1980656 -0.085128488 0.002291895
2030160 -0.085129672 0.002333549
2079664 -0.085132 0.002351315
2129168 -0.08512472 0.002424775
2178672 -0.085128552 0.002486192
2228176 -0.085149208 0.002532348
2277680 -0.085117088 0.002567402
2327184 -0.085109704 0.002601583
2376688 -0.085110688 0.002638731
2426192 -0.085144728 0.00268582
2475696 -0.085130528 0.002745907
2525200 -0.085160264 0.002784068
2574704 -0.085144424 0.002806874
2624208 -0.08515412 0.002879668
2673712 -0.085176264 0.002935954
2723216 -0.085171256 0.002939976
2772720 -0.085168136 0.003008627
2822224 -0.085186056 0.003056015
2871728 -0.085173528 0.003077372
2921232 -0.085200448 0.003131238
2970736 -0.085172952 0.003176767
3020240 -0.085172528 0.003213882
3069744 -0.08518704 0.003267496
3119248 -0.085167192 0.003309288
3168752 -0.085195832 0.003348487
3218256 -0.085166368 0.003398177
3267760 -0.085188552 0.003433477
3317264 -0.085160304 0.003469644
3366768 -0.085135832 0.003537237
3416272 -0.085111024 0.003563597
3465776 -0.085123616 0.003585295
3515280 -0.085117352 0.003639631
3564784 -0.085107024 0.003681859
3614288 -0.085050816 0.003747749
3663792 -0.085045728 0.003782531
3713296 -0.08508436 0.00385611
3762800 -0.085062232 0.003861038
3812304 -0.085023064 0.003910327
3861808 -0.08503412 0.00394422
3911312 -0.085052112 0.004009996
3960816 -0.08504212 0.004041012
4010320 -0.085020256 0.004092151
4059824 -0.08503692 0.004132086
4109328 -0.085027296 0.004171055
4158832 -0.0849944 0.004194507
4208336 -0.084976064 0.004261596
4257840 -0.085023984 0.004284849
4307344 -0.08495504 0.004330393
4356848 -0.084959368 0.004388681
4406352 -0.08493548 0.004429971
4455856 -0.084938928 0.00445724
4505360 -0.08495092 0.004504522
4554864 -0.08491184 0.004541298
4604368 -0.084931032 0.004577744
4653872 -0.084952776 0.004621092
4703376 -0.084920656 0.004662877
4752880 -0.084951128 0.004709886
4802384 -0.084956584 0.004751775
4851888 -0.084977392 0.004796142
4901392 -0.084952088 0.004868699
4950896 -0.084966976 0.004882461
5000400 -0.084995424 0.004916813
5049904 -0.08553328 0.005006683
5099408 -0.085515888 0.005039669
5148912 -0.085496824 0.005094377
5198416 -0.08550472 0.0051137
5247920 -0.085508648 0.005169139
5297424 -0.085502624 0.005210242
5346928 -0.08547312 0.005246929
5396432 -0.085492544 0.005304119
5445936 -0.085480704 0.005380589
5495440 -0.08547784 0.005398489
5544944 -0.085473632 0.005410068
5594448 -0.085469136 0.005474189
5643952 -0.085498592 0.005521931
5693456 -0.085477224 0.005568114
5742960 -0.085453712 0.005603927
5792464 -0.08546168 0.005639238
5841968 -0.0854536 0.00566853
5891472 -0.085468432 0.005695573
5940976 -0.085484416 0.005750555
5990480 -0.085508312 0.0057731
6039984 -0.085542216 0.005791696
6089488 -0.08555528 0.005830263
6138992 -0.085593 0.005841859
6188496 -0.085681552 0.005835578
6238000 -0.085724104 0.005840733
6287504 -0.085860328 0.005825739
6337008 -0.085934728 0.005883565
6386512 -0.08597748 0.00592565
6436016 -0.085989792 0.006057368
6485520 -0.085910992 0.006131488
6535024 -0.085844176 0.006240255
6584528 -0.085787376 0.006293622
6634032 -0.085736184 0.00637132
6683536 -0.08569008 0.006419811
6733040 -0.085696368 0.006436668
6782544 -0.085626896 0.006483318
6832048 -0.085634944 0.00653661
6881552 -0.0856114 0.006597354
6931056 -0.085573096 0.006618246
6980560 -0.085593448 0.006678413
7030064 -0.085601936 0.006714313
7079568 -0.085587992 0.006747051
7129072 -0.08559296 0.006809172
7178576 -0.085580016 0.006848935
7228080 -0.08555664 0.006855095
7277584 -0.0855464 0.006961429
7327088 -0.085534152 0.006972839
7376592 -0.08553196 0.007021693
7426096 -0.085511152 0.007077602
7475600 -0.085502536 0.007079421
7525104 -0.085511168 0.00716382
7574608 -0.085477264 0.007184674
7624112 -0.085498888 0.007235746
7673616 -0.08545904 0.007290114
7723120 -0.0854512 0.007307875
7772624 -0.085475488 0.007344356
7822128 -0.085484688 0.007430688
7871632 -0.085452056 0.00745628
7921136 -0.085461592 0.007462819
7970640 -0.085423688 0.007522626
8020144 -0.08542284 0.007569369
8069648 -0.085415912 0.00759724
8119152 -0.085427752 0.007629277
8168656 -0.085387032 0.007703934
8218160 -0.085386936 0.007726384
8267664 -0.085367872 0.007791651
8317168 -0.085392168 0.007804135
8366672 -0.085362904 0.007855903
8416176 -0.085357544 0.007867959
8465680 -0.085353928 0.007941956
8515184 -0.085351944 0.008023132
8564688 -0.0853614 0.008041381
8614192 -0.085309576 0.008069606
8663696 -0.085316992 0.008115104
8713200 -0.085310416 0.008171076
8762704 -0.08528756 0.008182764
8812208 -0.085281552 0.008228812
8861712 -0.085246832 0.008288266
8911216 -0.085240632 0.00833357
8960720 -0.085214872 0.008368688
9010224 -0.085224552 0.00838576
9059728 -0.085209824 0.008448003
9109232 -0.085216888 0.008455136
9158736 -0.085203968 0.008553058
9208240 -0.08517748 0.008568523
9257744 -0.085171624 0.008603795
9307248 -0.085153856 0.00863972
9356752 -0.085153552 0.008663274
9406256 -0.085152504 0.008749687
9455760 -0.085108664 0.00875645
9505264 -0.085112816 0.008792707
9554768 -0.085080112 0.008852297
9604272 -0.085086256 0.008888031
9653776 -0.08504888 0.008935156
9703280 -0.085050688 0.008943362
9752784 -0.085040528 0.009000611
9802288 -0.085035104 0.009054719
9851792 -0.085028832 0.009089394
9901296 -0.085009808 0.009146375
9950800 -0.084978832 0.009185469
10000304 -0.084960256 0.009220412
10049808 -0.085442048 0.009319582
10099312 -0.085429984 0.009366158
10148816 -0.0854738 0.009375704
10198320 -0.085460488 0.009432226
10247824 -0.085475272 0.00946252
10297328 -0.08544752 0.009536429
10346832 -0.085448344 0.009600924
10396336 -0.085423736 0.009628619
10445840 -0.085417352 0.009641599
10495344 -0.085417808 0.009706127
10544848 -0.085424976 0.009729293
10594352 -0.085412472 0.009776859
10643856 -0.085415568 0.009824659
10693360 -0.085415176 0.009884851
10742864 -0.085394024 0.009884298
10792368 -0.085375272 0.00996279
10841872 -0.085372744 0.010006222
10891376 -0.085365824 0.010048748
10940880 -0.085369144 0.010051953
10990384 -0.085365888 0.010132983
11039888 -0.085360392 0.010158942
11089392 -0.085343336 0.010180003
11138896 -0.085359784 0.010225537
11188400 -0.085351584 0.010264981
11237904 -0.085323736 0.010317088
11287408 -0.085334848 0.010375821
11336912 -0.085324752 0.010428708
11386416 -0.085298952 0.010439198
11435920 -0.0853098 0.010514141
11485424 -0.085283248 0.010552351
11534928 -0.085310504 0.010567304
11584432 -0.085274856 0.01062262
11633936 -0.08527052 0.010663006
11683440 -0.085274056 0.010692356
11732944 -0.085284408 0.010747924
11782448 -0.085283384 0.010799876
11831952 -0.085257352 0.01082141
11881456 -0.085255896 0.010877548
11930960 -0.08525296 0.010929851
11980464 -0.08522668 0.010959589
12029968 -0.08524368 0.011000112
12079472 -0.08524144 0.011045158
12128976 -0.085234688 0.0110685
12178480 -0.08522544 0.011101888
12227984 -0.085231792 0.011165483
12277488 -0.085230712 0.011223985
12326992 -0.085185576 0.011250293
12376496 -0.08519116 0.011297486
12426000 -0.085206864 0.01133522
12475504 -0.085172984 0.011362899
12525008 -0.08516876 0.011421706
12574512 -0.085163832 0.011452246
12624016 -0.085157576 0.011506
12673520 -0.08517256 0.011553857
12723024 -0.08514108 0.011595638
12772528 -0.085147768 0.011618613
12822032 -0.085123952 0.011660525
12871536 -0.085087392 0.011716429
12921040 -0.08508808 0.011741268
12970544 -0.085067184 0.01179194
13020048 -0.085113168 0.011820816
13069552 -0.085072384 0.011865126
13119056 -0.085049936 0.011938985
13168560 -0.085058568 0.011930579
13218064 -0.085036584 0.012006868
13267568 -0.085016168 0.012024347
13317072 -0.085051816 0.012055574
13366576 -0.085010696 0.01213223
13416080 -0.085027928 0.012173099
13465584 -0.085013584 0.012213123
13515088 -0.08501664 0.012222859
13564592 -0.084973496 0.01230682
13614096 -0.08495196 0.012325221
13663600 -0.084994232 0.012369514
13713104 -0.084974048 0.012394227
13762608 -0.084960232 0.012433235
13812112 -0.084943192 0.012502871
13861616 -0.084931032 0.012550738
13911120 -0.084944496 0.012585157
13960624 -0.084949376 0.012599911
14010128 -0.084922424 0.01265989
14059632 -0.084904736 0.012681684
14109136 -0.08490192 0.012732957
14158640 -0.084890776 0.012776102
14208144 -0.084894472 0.01283371
14257648 -0.084866248 0.012863463
14307152 -0.084869888 0.012921207
14356656 -0.084861528 0.012917676
14406160 -0.08483912 0.012968223
14455664 -0.08482156 0.013011506
14505168 -0.084828944 0.013067696
14554672 -0.084815016 0.013116399
14604176 -0.084810328 0.013139355
14653680 -0.084786328 0.013198114
14703184 -0.084809768 0.013234769
14752688 -0.084751224 0.013297456
14802192 -0.084735096 0.013336862
14851696 -0.084746472 0.013325073
14901200 -0.084741872 0.01338153
14950704 -0.084707152 0.013442107
15000208 -0.084694568 0.013470113
15049712 -0.084958384 0.013564759
15099216 -0.084948904 0.013613896
15148720 -0.084929664 0.013622087
15198224 -0.0849146 0.013682912
15247728 -0.08491056 0.013730817
15297232 -0.084913976 0.013772305
15346736 -0.084900104 0.013805434
15396240 -0.084898792 0.013820454
15445744 -0.084872616 0.013895664
15495248 -0.08485788 0.01393564
15544752 -0.0848632 0.013977442
15594256 -0.084851032 0.014035908
15643760 -0.084841928 0.014051139
15693264 -0.084848824 0.01409705
15742768 -0.08482672 0.014151611
15792272 -0.084824784 0.01416407
15841776 -0.084804192 0.014248898
15891280 -0.084802456 0.014286444
15940784 -0.08479404 0.014286118
15990288 -0.084791472 0.014345685
16039792 -0.084794536 0.01438329
16089296 -0.084770904 0.014438141
16138800 -0.084754136 0.014475764
16188304 -0.084732224 0.0145107
16237808 -0.084760712 0.014544287
16287312 -0.084736768 0.014603967
16336816 -0.084725024 0.014644032
16386320 -0.084712064 0.014673966
16435824 -0.084680496 0.014726904
16485328 -0.084683584 0.014756216
16534832 -0.084668432 0.01480655
16584336 -0.084680104 0.014828105
16633840 -0.084665312 0.014884975
16683344 -0.08464988 0.014904512
16732848 -0.084622504 0.01498376
16782352 -0.084621872 0.014997846
16831856 -0.084614816 0.015034709
16881360 -0.084621032 0.015077267
16930864 -0.0846048 0.015121035
16980368 -0.084588472 0.015171993
17029872 -0.08458572 0.015223318
17079376 -0.08455676 0.015260307
17128880 -0.084568304 0.015295913
17178384 -0.084564896 0.01533257
17227888 -0.084530448 0.015392576
17277392 -0.084560704 0.015393127
17326896 -0.084519064 0.015483276
17376400 -0.084505408 0.015518193
17425904 -0.084489768 0.015567479
17475408 -0.084479624 0.015608677
17524912 -0.084477488 0.015601072
17574416 -0.084483536 0.01567849
17623920 -0.084471688 0.015730286
17673424 -0.084447512 0.015746815
17722928 -0.084456768 0.015790639
17772432 -0.084406024 0.015841482
17821936 -0.0844288 0.015848372
17871440 -0.084395328 0.015913868
17920944 -0.084391312 0.015962597
17970448 -0.08437864 0.015989399
18019952 -0.084386488 0.016035581
18069456 -0.084359472 0.016057298
18118960 -0.084368728 0.016137056
18168464 -0.084329392 0.016181845
18217968 -0.084341128 0.016201314
18267472 -0.08432832 0.016234148
18316976 -0.084315784 0.016303042
18366480 -0.0842822 0.01633196
18415984 -0.084263696 0.016371846
18465488 -0.084251208 0.016394487
18514992 -0.084238752 0.016430914
18564496 -0.084243752 0.0164566
18614000 -0.084239424 0.016536498
18663504 -0.084213 0.016587075
18713008 -0.084198648 0.016598236
18762512 -0.084197696 0.016672488
18812016 -0.084160624 0.016696049
18861520 -0.084156 0.016733347
18911024 -0.084159888 0.016752763
18960528 -0.084130224 0.01682327
19010032 -0.084118424 0.016821912
19059536 -0.084118416 0.0168711
19109040 -0.084086704 0.016931626
19158544 -0.084075512 0.01697817
19208048 -0.084051568 0.017019154
19257552 -0.084043128 0.01703466
19307056 -0.084033176 0.017078328
19356560 -0.08404096 0.0171473
19406064 -0.084000216 0.017162218
19455568 -0.083986192 0.01721127
19505072 -0.083978808 0.017246658
19554576 -0.083953472 0.017296642
19604080 -0.083981016 0.017328928
19653584 -0.083955592 0.017349122
19703088 -0.083934456 0.017403434
19752592 -0.083921928 0.01744964
19802096 -0.083929624 0.01749887
19851600 -0.083908552 0.017510342
19901104 -0.083906216 0.0176038
19950608 -0.083896832 0.017630998
20000112 -0.083886696 0.01764741
20049616 -0.084093064 0.017771572
20099120 -0.084081552 0.017773212
20148624 -0.084081272 0.017843182
20198128 -0.084062952 0.017895912
20247632 -0.084066872 0.017903474
20297136 -0.08406628 0.017932966
20346640 -0.08403016 0.017999402
20396144 -0.084022672 0.018074216
20445648 -0.08401424 0.018054842
20495152 -0.084026168 0.018115414
20544656 -0.083997304 0.018155206
20594160 -0.08403308 0.0181957
20643664 -0.083989096 0.018236878
20693168 -0.08396748 0.018287072
20742672 -0.0839576 0.018301736
20792176 -0.083964864 0.01836904
20841680 -0.083958904 0.01840358
20891184 -0.083924832 0.018445686
20940688 -0.083912984 0.018494968
20990192 -0.083918368 0.018562016
21039696 -0.083906064 0.018581176
21089200 -0.083868952 0.01861907
21138704 -0.083866344 0.018644814
21188208 -0.08387932 0.018673124
21237712 -0.083872304 0.01873319
21287216 -0.083872184 0.01878616
21336720 -0.083841352 0.018811508
21386224 -0.08382768 0.01887484
21435728 -0.083817072 0.018903554
21485232 -0.083801096 0.018948832
21534736 -0.083807736 0.019003126
21584240 -0.083766488 0.019013088
21633744 -0.083780488 0.019044834
21683248 -0.08376856 0.019101486
21732752 -0.083750968 0.019154128
21782256 -0.083758512 0.01919805
21831760 -0.083728232 0.019212692
21881264 -0.083729208 0.019263794
21930768 -0.083715392 0.019282862
21980272 -0.083712952 0.019365006
22029776 -0.08369724 0.019383734
22079280 -0.08366908 0.019412368
22128784 -0.083662912 0.01946011
22178288 -0.083667536 0.019528734
22227792 -0.08362764 0.019537864
22277296 -0.083629656 0.019592484
22326800 -0.083629416 0.01962001
22376304 -0.083570432 0.019665566
22425808 -0.083588728 0.019675428
22475312 -0.083586216 0.019741756
22524816 -0.083546088 0.01981162
22574320 -0.083519552 0.019853524
22623824 -0.083532488 0.0199054
22673328 -0.083497744 0.019939694
22722832 -0.083501496 0.01994209
22772336 -0.083476656 0.01999869
22821840 -0.083492176 0.020018844
22871344 -0.083471472 0.020059974
22920848 -0.083431104 0.020120382
22970352 -0.083439656 0.0201125
23019856 -0.08342908 0.02019528
23069360 -0.083413024 0.020212354
23118864 -0.083401152 0.020284844
23168368 -0.083401648 0.020288124
23217872 -0.083375488 0.020360008
23267376 -0.083345936 0.020406246
23316880 -0.083353544 0.020438418
23366384 -0.083312304 0.020476046
23415888 -0.083307952 0.020506706
23465392 -0.083299032 0.020534516
23514896 -0.083289136 0.02061097
23564400 -0.083278304 0.020625002
23613904 -0.08324224 0.020665604
23663408 -0.083242912 0.020711738
23712912 -0.083233288 0.020756254
23762416 -0.08322388 0.020793188
23811920 -0.08321816 0.020814566
23861424 -0.083159368 0.020877346
23910928 -0.083147792 0.020930176
23960432 -0.083186304 0.020957156
24009936 -0.083152544 0.020985236
24059440 -0.083134568 0.021035676
24108944 -0.083123272 0.021078628
24158448 -0.083083936 0.021146554
24207952 -0.083098432 0.021164046
24257456 -0.083051648 0.02117585
24306960 -0.083054064 0.021234788
24356464 -0.083047312 0.02127357
24405968 -0.083054752 0.021273952
24455472 -0.083020728 0.021347202
24504976 -0.08300324 0.021379696
24554480 -0.083005272 0.021427212
24603984 -0.082982152 0.021490098
24653488 -0.082953704 0.02149837
24702992 -0.082938248 0.021569014
24752496 -0.082918592 0.021595936
24802000 -0.082916216 0.02162317
24851504 -0.08291024 0.021658638
24901008 -0.08289732 0.021733722
24950512 -0.082898728 0.021765338
25000016 -0.082892424 0.021775076
25049520 -0.08292672 0.021783806
25099024 -0.082901768 0.021868706
25148528 -0.082891352 0.02189672
25198032 -0.082855152 0.021933492
25247536 -0.08285868 0.021977184
25297040 -0.08286204 0.022024638
25346544 -0.08284788 0.022077576
25396048 -0.082823816 0.022098488
25445552 -0.082824296 0.022152932
25495056 -0.082797112 0.022196556
25544560 -0.082799864 0.022224408
25594064 -0.082783416 0.022279644
25643568 -0.082768728 0.022309428
25693072 -0.082762264 0.022357838
25742576 -0.082748312 0.022398538
25792080 -0.082740288 0.02243022
25841584 -0.082741312 0.022482496
25891088 -0.082717336 0.022501196
25940592 -0.082705752 0.022562384
25990096 -0.082727736 0.02261507
26039600 -0.082680912 0.022651326
26089104 -0.082650352 0.02269078
26138608 -0.082648784 0.022702536
26188112 -0.082635264 0.022737324
26237616 -0.082647976 0.02280453
26287120 -0.082621376 0.022808384
26336624 -0.08259276 0.022884564
26386128 -0.082601488 0.022928548
26435632 -0.082587672 0.022962086
26485136 -0.08258376 0.02301519
26534640 -0.082571592 0.023023606
26584144 -0.082556408 0.023112922
26633648 -0.082524776 0.023137208
26683152 -0.08249436 0.023149888
26732656 -0.082502608 0.023184082
26782160 -0.082506472 0.023219976
26831664 -0.082473632 0.02330154
26881168 -0.082441296 0.02331836
26930672 -0.08247344 0.023342038
26980176 -0.082434624 0.023421706
27029680 -0.082412744 0.023436538
27079184 -0.082399952 0.023498584
27128688 -0.082411688 0.0234915
27178192 -0.08238208 0.023578942
27227696 -0.082381288 0.023618402
27277200 -0.082336216 0.02362151
27326704 -0.08238464 0.023675804
27376208 -0.082333968 0.023725428
27425712 -0.082318104 0.023794222
27475216 -0.082309368 0.023829018
27524720 -0.082276296 0.023843954
27574224 -0.082266992 0.02386344
27623728 -0.082295376 0.023918592
27673232 -0.0822652 0.023965016
27722736 -0.08224052 0.023979834
27772240 -0.082225672 0.024049696
27821744 -0.082205064 0.024068546
27871248 -0.082213768 0.024145822
27920752 -0.082184144 0.024168134
27970256 -0.082180824 0.02419006
28019760 -0.082140768 0.02423243
28069264 -0.082157736 0.024298862
28118768 -0.08214012 0.024323236
28168272 -0.08213904 0.02434624
28217776 -0.082110928 0.024383974
28267280 -0.082085432 0.024431132
28316784 -0.082077536 0.02450246
28366288 -0.082077344 0.02451313
28415792 -0.082038656 0.024580506
28465296 -0.082039048 0.024576144
28514800 -0.08204732 0.024633034
28564304 -0.082001328 0.024678004
28613808 -0.082046904 0.024714172
28663312 -0.081987824 0.024767676
28712816 -0.08195832 0.024802302
28762320 -0.081936064 0.024834732
28811824 -0.081924832 0.024879622
28861328 -0.081897968 0.024944672
28910832 -0.081883904 0.024943126
28960336 -0.081888 0.024996032
29009840 -0.081892112 0.025036538
29059344 -0.08187428 0.025049782
29108848 -0.081860224 0.025117854
29158352 -0.08184 0.02515621
29207856 -0.081789064 0.025201466
29257360 -0.081820128 0.025239962
29306864 -0.08179824 0.025278746
29356368 -0.081779584 0.02529317
29405872 -0.081760304 0.025342664
29455376 -0.081755488 0.025385082
29504880 -0.081718424 0.025418608
29554384 -0.081694352 0.025440788
29603888 -0.081688696 0.025507126
29653392 -0.081678448 0.025537764
29702896 -0.081689392 0.025580768
29752400 -0.081648584 0.02559812
29801904 -0.081638712 0.025676596
