# HZ S RI R 50
50000 0.964457579231051 -0.21068987095313096
99504 0.9073415301095943 -0.4073395381248147
149008 0.8091723945652787 -0.5749745927456518
198512 0.689591514583506 -0.7119982748551786
248016 0.557627895602884 -0.8177289843922689
297520 0.4234256937832573 -0.8942979246796046
347024 0.2931288913814645 -0.9456579760729655
396528 0.16968910403037285 -0.9762768616818274
446032 0.05469646365128552 -0.9889862200023176
495536 -0.04794737389837333 -0.9907786103478167
545040 -0.14166670566039838 -0.9827566626206184
594544 -0.22502659231162855 -0.9670143102810709
644048 -0.299192205902549 -0.9482164396018536
693552 -0.36453506584203343 -0.9263271881580692
743056 -0.42387607625836454 -0.9016550234819329
792560 -0.4745092098806422 -0.876511803315519
842064 -0.5208614897758894 -0.8513785171131528
891568 -0.5619172488605408 -0.8257295363215555
941072 -0.5982947448939795 -0.8000095212335631
990576 -0.630893894544183 -0.7761497950947471
1040080 -0.6606951376084932 -0.7517047398244289
1089584 -0.6870602342298834 -0.7292201795236876
1139088 -0.7103410662059186 -0.7062668749876788
1188592 -0.7318550066578876 -0.6854253677078023
1238096 -0.7511366285885431 -0.6651130971860283
1287600 -0.768828717599977 -0.644714196945542
1337104 -0.7849436804416672 -0.6252893708772918
1386608 -0.800180130086554 -0.6083644856831366
1436112 -0.8130285100603081 -0.5906346305091044
1485616 -0.8246293765594233 -0.5736707726603559
1535120 -0.8360683400199738 -0.55807280324554
1584624 -0.8463894441372891 -0.5427829512335847
1634128 -0.856021468782681 -0.5282628588988966
1683632 -0.865171184257759 -0.5146887352464015
1733136 -0.873582861924926 -0.5010539399530741
1782640 -0.8806995005495163 -0.4889793179470512
1832144 -0.8878655328853153 -0.4759858068967411
1881648 -0.8947670027820995 -0.4638958649610491
1931152 -0.900671151445654 -0.45176991380671905
1980656 -0.9057731489003601 -0.4413933929297964
2030160 -0.9117785095130426 -0.43144585058886853
2079664 -0.9163662304333041 -0.4210287932350565
2129168 -0.9210154992877062 -0.41143858655572724
2178672 -0.9254112656554941 -0.4018575485294882
2228176 -0.9296133868602635 -0.3926595851269099
2277680 -0.9329906874236016 -0.38333359701466374
2327184 -0.9368260199066482 -0.37529259841176604
2376688 -0.9403238711390383 -0.36727023742923987
2426192 -0.9439790751671024 -0.35934527088739093
2475696 -0.9470789492589485 -0.3513423380789708
2525200 -0.9493499567480443 -0.34414055871341676
2574704 -0.9521799631341314 -0.33705138012579827
2624208 -0.955110716934051 -0.33001906325910235
2673712 -0.957482553360366 -0.32297620067349186
2723216 -0.959516657885098 -0.3161629905470882
2772720 -0.9619838135372297 -0.31024609202058107
2822224 -0.9637145571865372 -0.30377147282565187
2871728 -0.966082491160201 -0.29798500356132346
2921232 -0.9677414888940209 -0.2918154021049685
2970736 -0.9690919714087631 -0.2867548207381226
3020240 -0.9710762670286214 -0.28066446029029035
3069744 -0.9726186539579726 -0.27478992257896817
3119248 -0.9740585423380886 -0.26999694977257854
3168752 -0.975861399810018 -0.26476616088441257
3218256 -0.9771065895842382 -0.25967998044753665
3267760 -0.9791058782335926 -0.25485007786623276
3317264 -0.9799622554921457 -0.25038769690105944
3366768 -0.981277517998039 -0.2455290763658409
3416272 -0.9825103791853556 -0.24058021749913416
3465776 -0.9835204156591112 -0.23695254178197844
3515280 -0.9846310699706078 -0.23209289980738732
3564784 -0.9859415501648781 -0.22792158096572818
3614288 -0.9870721036565132 -0.22367887347197507
3663792 -0.987684298798529 -0.21956298913635017
3713296 -0.9892641046867762 -0.21590427892994257
3762800 -0.989511596441704 -0.2121769696581798
3812304 -0.9904592982372313 -0.20803728452723066
3861808 -0.9911526232122588 -0.20419083945864597
3911312 -0.9922923892018101 -0.2004332715487347
3960816 -0.9927796377906453 -0.19721643552156917
4010320 -0.9938504565235379 -0.19335469789202886
4059824 -0.9943881142426113 -0.19008159723111717
4109328 -0.9949368375736889 -0.18653364914681272
4158832 -0.995651340938873 -0.18362663239558177
4208336 -0.9960900399165019 -0.1797030167748178
4257840 -0.9968175235087617 -0.17711070359608053
4307344 -0.9976528569002711 -0.17389981796187626
4356848 -0.9981183339709011 -0.17056799295662137
4406352 -0.9985974526300456 -0.16759763443796732
4455856 -0.9990788668053044 -0.16436881999986394
4505360 -0.9994467983305704 -0.1616938807800473
4554864 -1.0003652226223045 -0.15901309307038658
4604368 -1.0007564827557394 -0.15596919107827562
4653872 -1.0011498825503482 -0.15269380790418888
4703376 -1.0012430429579227 -0.1505460180551015
4752880 -1.002021227316421 -0.14737097811094457
4802384 -1.002499080193412 -0.1451729703891832
4851888 -1.0028623920950903 -0.14221675449834834
4901392 -1.002913199913692 -0.13965603834239065
4950896 -1.0032096446642331 -0.1370263425476416
5000400 -1.0040160481355485 -0.13466292401875937
5049904 -1.0045619887579202 -0.1321791630236464
5099408 -1.0044247728300657 -0.1295984151511412
5148912 -1.004710104867921 -0.127716673780617
5198416 -1.0057781586362013 -0.1253705963373688
5247920 -1.005378920932872 -0.12272625613242562
5297424 -1.0060635199905743 -0.12026291646833857
5346928 -1.006040694602138 -0.1182127751155335
5396432 -1.0064153770373092 -0.11598656205277616
5445936 -1.0071530734844787 -0.11340479899883324
5495440 -1.0070915473038469 -0.11122442349230849
5544944 -1.0071344533329696 -0.10936590220932463
5594448 -1.0073309389507257 -0.10748237836735622
5643952 -1.0076230440529617 -0.10524269703570188
5693456 -1.0080421393917536 -0.10288357417249173
5742960 -1.0084579803339446 -0.10080185994779656
5792464 -1.0085381557175832 -0.09890004494202043
5841968 -1.0085497000710364 -0.0968505165202106
5891472 -1.0089134891538758 -0.09500041825973438
5940976 -1.0089545022858728 -0.09278283308831205
5990480 -1.0091933909519346 -0.09079558343860727
6039984 -1.0096410621420817 -0.08888897427741341
6089488 -1.0098673386010864 -0.08671178871014384
6138992 -1.0095776316367646 -0.08502826091950402
6188496 -1.0098400862922021 -0.08344217384528282
6238000 -1.0102399109581346 -0.08159633583528915
6287504 -1.0105948753456586 -0.07982857464738347
6337008 -1.0110111810296225 -0.07797465127654228
6386512 -1.0106458918375922 -0.07561667823480202
6436016 -1.010645603607666 -0.07412719945416005
6485520 -1.0110660657332278 -0.07264487691421145
6535024 -1.0112363978180576 -0.0710799168773644
6584528 -1.0110906551442334 -0.06861938097509515
6634032 -1.010956278551332 -0.06736214851193156
6683536 -1.0111299518642305 -0.06576075638923795
6733040 -1.0111936003544373 -0.06397463271273064
6782544 -1.0120074088857496 -0.06232645823004487
6832048 -1.0117649371637911 -0.060341742176966605
6881552 -1.0115619402033391 -0.05922795933148376
6931056 -1.0116586225076842 -0.05760407364071348
6980560 -1.0117687308260848 -0.05608999021483774
7030064 -1.0120020985053 -0.054400537174640974
7079568 -1.0123611072655416 -0.0526810399382914
7129072 -1.0123597673335147 -0.05108621027089472
7178576 -1.0121069792907542 -0.049248749107067065
7228080 -1.0123889288254138 -0.04829265051898304
7277584 -1.0123283345667735 -0.04683832976406327
7327088 -1.012579983921854 -0.04535118577868946
7376592 -1.0126869782257435 -0.04367437804544502
7426096 -1.0128870345028989 -0.04186897900613067
7475600 -1.0125437470301486 -0.04074456094922011
7525104 -1.012811668450396 -0.039034115368165326
7574608 -1.0124983060331127 -0.037589977662567164
7624112 -1.0128170693200427 -0.03614752968236975
7673616 -1.0131258324852275 -0.03501252653706345
7723120 -1.0130739674755078 -0.0336247849633449
7772624 -1.0131472805967259 -0.03181118878191111
7822128 -1.01284935399124 -0.030712738652202157
7871632 -1.0128813626246047 -0.029539503859652594
7921136 -1.0131731898213812 -0.02774234639983156
7970640 -1.0131492656638075 -0.02654671393188999
8020144 -1.0133441663767628 -0.025542671598192915
8069648 -1.0127052171810407 -0.023891685078596014
8119152 -1.0134075113405503 -0.021846409282868025
8168656 -1.0134114897061075 -0.021334071146928996
8218160 -1.0134482286562132 -0.01946781441449003
8267664 -1.0134881342451643 -0.018360276933756824
8317168 -1.0132533475981462 -0.017289014887235644
8366672 -1.013312819892203 -0.01591024694787267
8416176 -1.013283437869352 -0.014833220990683956
8465680 -1.0136024605383032 -0.013394864529672111
8515184 -1.0135700942512662 -0.01193261145061692
8564688 -1.0130924677968007 -0.01078358830234689
8614192 -1.0133674960015029 -0.009687279267882818
8663696 -1.0136745661182591 -0.008184489718310465
8713200 -1.01377047710563 -0.006993753680184912
8762704 -1.0135653940710614 -0.005627081472298282
8812208 -1.0133009761546536 -0.004396774016580147
8861712 -1.013522648365589 -0.0033554712801775522
8911216 -1.0133680102463622 -0.0022877008366238927
8960720 -1.0137631670017364 -0.0010106982137943331
9010224 -1.0135250402816056 0.000461049599188617
9059728 -1.013481659887582 0.0014262508575940951
9109232 -1.0133322854928948 0.002863414067468321
9158736 -1.0135148156573783 0.004014344313856652
9208240 -1.0136006027046507 0.004907918371429079
9257744 -1.0136484302914393 0.005844493925179033
9307248 -1.0135577986614217 0.0073531489410745225
9356752 -1.013425931650034 0.008455780007334861
9406256 -1.01361840155414 0.009608321517417544
9455760 -1.0131797616297322 0.011031528626151867
9505264 -1.0133327430575367 0.011736911001127436
9554768 -1.0132282994306792 0.013172248181676513
9604272 -1.0135282129036371 0.014203207716154577
9653776 -1.0133789026656683 0.015620933178869187
9703280 -1.0128632558742974 0.01620834133913874
9752784 -1.0132859628449684 0.017412436571421344
9802288 -1.0133288510268286 0.01867763493230289
9851792 -1.0130131996104756 0.019916891344633696
9901296 -1.0134608655276225 0.02091088080942567
9950800 -1.0130063795623236 0.022114001396375222
10000304 -1.0129530307153705 0.022962837390145242
10049808 -1.0132829453129137 0.0241120853409034
10099312 -1.0128977631180438 0.025514465940844434
10148816 -1.0135119796413135 0.025932677965630858
10198320 -1.0133044920587388 0.02755569698760262
10247824 -1.013071309225373 0.02812761523890183
10297328 -1.0128218488443463 0.029861391189640717
10346832 -1.013196684334237 0.030943487094828373
10396336 -1.0127918794481268 0.031844563851860214
10445840 -1.0125397480042015 0.032649642418864686
10495344 -1.0128432785425368 0.03344266024279044
10544848 -1.0131794053316865 0.03461572494371828
10594352 -1.0129286428855708 0.03567570448461757
10643856 -1.0130083627545705 0.036543055434858314
10693360 -1.0127064363345373 0.037756215679021654
10742864 -1.0124387691005654 0.038850948552042706
10792368 -1.0123479608053403 0.0395349293166512
10841872 -1.012493286297107 0.0405739622234209
10891376 -1.01242910216267 0.041883399720549386
10940880 -1.0126365858028337 0.04291708521221608
10990384 -1.0121225632760282 0.0435311394030239
11039888 -1.0124862499099414 0.04458032812935377
11089392 -1.0124142595809136 0.04605638847091716
11138896 -1.0120068653691976 0.046813592665142026
11188400 -1.0124509869117881 0.04767199441260068
11237904 -1.0119291924620566 0.04845582038791107
11287408 -1.0122784277297987 0.049300534562763815
11336912 -1.011937284635036 0.0504416346144551
11386416 -1.0120696293705396 0.0514009421359659
11435920 -1.0122695716740169 0.052710555092139434
11485424 -1.0119615542602576 0.05391158842507845
11534928 -1.0117285206944082 0.05455009775836326
11584432 -1.011854311903794 0.05567366963073728
11633936 -1.0116498660332194 0.05647254238714821
11683440 -1.0112491303064295 0.05740291324828759
11732944 -1.0111108063716383 0.058120295040762236
11782448 -1.0113679812734915 0.05961653029375382
11831952 -1.0113057241394856 0.060109849792696096
11881456 -1.011542710376218 0.060806627210033125
11930960 -1.0116408293969263 0.06181829972170374
11980464 -1.0118060135645637 0.06283339155760949
12029968 -1.0116550566167049 0.06412098459830963
12079472 -1.0111362080910633 0.0652485843218518
12128976 -1.010947409753928 0.06570423361994605
12178480 -1.0114233089972218 0.06686773027866728
12227984 -1.0107999452032703 0.06774546759528245
12277488 -1.0107000883067374 0.06837778725015312
12326992 -1.0110231832070662 0.06936228991931839
12376496 -1.010753797521324 0.07041962497510358
12426000 -1.0109241999526464 0.07141504271598813
12475504 -1.01047807764247 0.072191787914047
12525008 -1.0108576459732908 0.072998432608441
12574512 -1.0103928010190766 0.07412686984151878
12624016 -1.0105018598553037 0.07518256846344686
12673520 -1.0102973084119486 0.07629012524127148
12723024 -1.0102703160267457 0.07682288894776826
12772528 -1.0102270427118423 0.07757068841167536
12822032 -1.01011812728686 0.07831616433440422
12871536 -1.0100215564460318 0.07942370320539248
12921040 -1.0097856617558334 0.07994135361738727
12970544 -1.0099290676068757 0.08088991868781566
13020048 -1.0100132531501314 0.08216901487445476
13069552 -1.0095989206668585 0.08286570033332176
13119056 -1.0094063171901295 0.08365725615100399
13168560 -1.0097349545952736 0.08450173245933866
13218064 -1.009058742223159 0.0852993561457027
13267568 -1.0089596960896032 0.08633091290812715
13317072 -1.0097703507223632 0.0868187111382472
13366576 -1.009331352497817 0.08835574592361321
13416080 -1.0092320055125168 0.08940538494675666
13465584 -1.0092085827664423 0.08993288756018522
13515088 -1.0094844916074186 0.0904647751602677
13564592 -1.009055595194535 0.0915706139636927
13614096 -1.0086902449076265 0.09215486913263264
13663600 -1.0088920365584455 0.09348243359629689
13713104 -1.008618275412967 0.09402567725864369
13762608 -1.0086384904856094 0.09458098391511881
13812112 -1.0085872823301412 0.09593405578399641
13861616 -1.0086167689914696 0.0970534044917563
13911120 -1.0083324979267916 0.09754413920958796
13960624 -1.008011691928178 0.09819682954687116
14010128 -1.008215009082127 0.09901776756152715
14059632 -1.0086062659498314 0.10017989433761483
14109136 -1.0080325647929393 0.10086285131172616
14158640 -1.007979074693373 0.10169130084084343
14208144 -1.0078921745362062 0.102692837993936
14257648 -1.007534081559786 0.10329721009592972
14307152 -1.0074442590332087 0.10398819755520562
14356656 -1.007667432182606 0.10484245417510983
14406160 -1.0074999986613478 0.1060285167785186
14455664 -1.0071690330310594 0.10653548115389261
14505168 -1.0072116353491107 0.10744973632786256
14554672 -1.0073111482668236 0.10831747401264434
14604176 -1.0071006927605026 0.10889134949852157
14653680 -1.0069975416784966 0.11008190465094336
14703184 -1.006789234397091 0.11075842244801432
14752688 -1.0066984386304005 0.11160326156067953
14802192 -1.0066154289677938 0.11249638739308904
14851696 -1.0064035489372962 0.11312614313117136
14901200 -1.0065628892447511 0.1138930693973651
14950704 -1.006326454014383 0.11497891386182192
15000208 -1.0062231097096968 0.1157112994189012
15049712 -1.0060153664951228 0.11605027604675651
15099216 -1.0060824065961538 0.11704178268959696
15148720 -1.0061987838142479 0.11782565702441318
15198224 -1.005852061005677 0.11863740755227667
15247728 -1.005710142357566 0.1195448779725633
15297232 -1.0055995543163498 0.12052682840984265
15346736 -1.0055633918549005 0.12096686714796123
15396240 -1.0050858783700825 0.12204687518705777
15445744 -1.0057777120094016 0.12263720569995924
15495248 -1.0053251824258362 0.12339587888525937
15544752 -1.005400439983141 0.12401946679291823
15594256 -1.0051309838060938 0.1253207911269763
15643760 -1.0047502516860005 0.12617699984417818
15693264 -1.0048218835745624 0.1268109205925621
15742768 -1.004727328865069 0.12739919001721672
15792272 -1.005134910568712 0.12817877913055994
15841776 -1.0046628439628755 0.12910326842439823
15891280 -1.0043114831321622 0.13014078367825355
15940784 -1.004334146163713 0.1302916201564911
15990288 -1.0039597004744483 0.1313851316068906
16039792 -1.0041886716460293 0.13178663594118822
16089296 -1.0043023109825524 0.13273506313312802
16138800 -1.0039484566141392 0.13376687045815563
16188304 -1.0039166219890554 0.13427747802668935
16237808 -1.0033968968950027 0.135074407474302
16287312 -1.0036241952340639 0.13618180400943994
16336816 -1.0034997867729272 0.1364399840670888
16386320 -1.0033912492989858 0.13751888850413185
16435824 -1.0032490133227883 0.1384051346754159
16485328 -1.0031967764420417 0.13922755483607696
16534832 -1.0028753790928746 0.13995036285690537
16584336 -1.0025983331486454 0.14032393490870745
16633840 -1.0028031356768554 0.14127904192977936
16683344 -1.0025912904553527 0.14187798006336752
16732848 -1.0024841141180931 0.14298099589200303
16782352 -1.0024726999069098 0.14319758304838306
16831856 -1.0024827127475493 0.1444182181447513
16881360 -1.0021896535521997 0.14511668336409622
16930864 -1.0022473201876994 0.14575293650099916
16980368 -1.0022282901592952 0.14655217296201406
17029872 -1.0019023131603806 0.14722863636695402
17079376 -1.001613887771001 0.14803620462540834
17128880 -1.0014719173695639 0.14885948149517522
17178384 -1.0017399565341767 0.14944984160104574
17227888 -1.0011650303137105 0.15043928097868994
17277392 -1.00097140403791 0.15099772872925243
17326896 -1.0012239506910692 0.15165913779077136
17376400 -1.0008155923797464 0.15235442650310654
17425904 -1.0006698830494505 0.15317810181849625
17475408 -1.00055436396342 0.15392113502707525
17524912 -1.0006814973267597 0.15495802252992277
17574416 -1.0004192623272672 0.1554855666012524
17623920 -1.0003092712731487 0.1562530540697989
17673424 -1.0004430883749 0.15710937969181268
17722928 -1.0002391421270556 0.15771355441546034
17772432 -1.0004184590261793 0.1583000360037074
17821936 -0.9996490072241441 0.1594659170220992
17871440 -0.9997392883437515 0.15961913783312537
17920944 -0.9997019345433126 0.16091424785320088
17970448 -0.9993801524385405 0.16110606901841076
18019952 -0.9995143708847802 0.1619450809115617
18069456 -0.9993324936567036 0.1626330076514748
18118960 -0.9990249802585277 0.1636193901972629
18168464 -0.9989004280604793 0.1639409424180766
18217968 -0.9992449751008238 0.165022291729394
18267472 -0.9986494901426699 0.16536646287021012
18316976 -0.9986948807415797 0.1663656322662647
18366480 -0.997766873059208 0.16697062506251206
18415984 -0.9983228058100978 0.1677578245712346
18465488 -0.9983494413007047 0.16843448184440485
18514992 -0.9984052151650264 0.1696202236551463
18564496 -0.9981106376686837 0.17026528768035226
18614000 -0.9976374918506005 0.1709167759065834
18663504 -0.9978840688656178 0.17152751998706678
18713008 -0.9973938046279514 0.1721736712645728
18762512 -0.9972112346285753 0.17262312238449226
18812016 -0.9975368424939016 0.17380375728561398
18861520 -0.9967528227602396 0.1744751940357989
18911024 -0.9970754902975679 0.1744698816602891
18960528 -0.9967612711362729 0.17539201734380905
19010032 -0.9966801175380836 0.17638948882742533
19059536 -0.9968679989327032 0.17700671935909396
19109040 -0.9965565482723704 0.1777981981962145
19158544 -0.9959730470406731 0.17869667378440388
19208048 -0.9959517837201709 0.17917993414472103
19257552 -0.9959249287552441 0.17982661957304497
19307056 -0.9960831365264715 0.18055976394726392
19356560 -0.995870918098036 0.18116387163585035
19406064 -0.9958849062235433 0.18175797146036848
19455568 -0.9956954823955357 0.18255851574517906
19505072 -0.9953302877368887 0.18315469007729912
19554576 -0.9951354094257724 0.1840298600660662
19604080 -0.9952933819463126 0.1850511814027375
19653584 -0.9948069647391725 0.18534150595974191
19703088 -0.9948370943294369 0.18632464155131126
19752592 -0.9945508646292976 0.18694336430750474
19802096 -0.9947265351656638 0.18766274763369864
19851600 -0.9943355124229541 0.1885095809776745
19901104 -0.9940937842838354 0.1891106319842583
19950608 -0.9944281585064493 0.1900348438887351
20000112 -0.9938658853216721 0.19057781307495156
20049616 -0.993729700830122 0.1910801616434715
20099120 -0.9939100263518515 0.1919183531767271
20148624 -0.9938520166565968 0.19236208865574558
20198128 -0.9937461443059934 0.19298406702173168
20247632 -0.9933614869606165 0.19395324644284018
20297136 -0.9931346017468538 0.1944187622331764
20346640 -0.9929125349725891 0.19548564407878163
