# HZ S RI R 50
50000 -0.9855512203072122 0.10348413792234179
99504 -0.976591831601437 0.20586373418408985
149008 -0.9504523842849881 0.30343459183394655
198512 -0.9154195802093069 0.3967645477529946
248016 -0.8722684687082957 0.4832587603282116
297520 -0.8217067489408639 0.5636887013148518
347024 -0.7657312020099629 0.6374323933636366
396528 -0.705475527610557 0.7028411306019365
446032 -0.6428943624885898 0.7606916603161891
495536 -0.5767801884963323 0.811644611351107
545040 -0.5106567725138363 0.8543286354666502
594544 -0.4448455884441089 0.8911846052219918
644048 -0.37837981512899865 0.9206566700428125
693552 -0.31319884695457817 0.9435466365708265
743056 -0.2512613909252447 0.9622315446930099
792560 -0.18944141640853815 0.9765100184196972
842064 -0.1311259999264441 0.9853878920299909
891568 -0.07481154148450657 0.990877300591566
941072 -0.02192727267530732 0.9938625702198727
990576 0.029215532853136206 0.993687861660303
1040080 0.07714136714966909 0.9906102035386892
1089584 0.12326524886884282 0.98609718142577
1139088 0.16607986270492883 0.9799097493114629
1188592 0.20723376436002836 0.9716896650725173
1238096 0.2457603337445726 0.9629465276517933
1287600 0.2819789438622628 0.9528101662552935
1337104 0.31531810011965145 0.9421817897163483
1386608 0.3480197283108039 0.9301882543294238
1436112 0.377853922690021 0.9190354748390941
1485616 0.406358549088848 0.9071649218593769
1535120 0.43344917298065655 0.8939864445013057
1584624 0.45856196536466554 0.8824826671359947
1634128 0.4822778502895816 0.8692381145432618
1683632 0.5049411345961825 0.8556640501112555
1733136 0.5249775331886296 0.8431022935722
1782640 0.5457909382535677 0.8304004919897833
1832144 0.5639908288083535 0.8176066752029506
1881648 0.5812290471805561 0.8056599730686764
1931152 0.5982648192022403 0.7939058923121604
1980656 0.6147165341526566 0.7808312300083621
2030160 0.6285782777342235 0.769268789894257
2079664 0.6429492835875155 0.7568620557548037
2129168 0.6563748630766806 0.745586098821926
2178672 0.6692273374866077 0.7341232044201037
2228176 0.6816732251924459 0.7232726235235207
2277680 0.693234294047961 0.7127183171074833
2327184 0.704129890270507 0.7013564732026734
2376688 0.7134758859974986 0.6912086244423666
2426192 0.7241260374102193 0.6811260786587757
2475696 0.7327896372251204 0.6705608203431075
2525200 0.7423756391345365 0.6613175705228611
2574704 0.7505286141518451 0.6514654558048237
2624208 0.7585825479975365 0.6422007633140927
2673712 0.7668662455240269 0.6332073280146227
2723216 0.7737735886729132 0.62411692228753
2772720 0.7807632614391264 0.6153212399447624
2822224 0.7874462299152092 0.6067777357188477
2871728 0.7941879602883974 0.5981676697831547
2921232 0.799862825729979 0.5904290000309063
2970736 0.8061214728617854 0.5824411373403636
3020240 0.8118579279647643 0.574593235349198
3069744 0.816577080405753 0.5674918886444075
3119248 0.8226116986324461 0.5597507064051599
3168752 0.8269898380798132 0.5520569665661923
3218256 0.8314225502618108 0.5453495141990722
3267760 0.836533085827135 0.5383887454292191
3317264 0.8407450511786945 0.5309438816530274
3366768 0.8447669029300963 0.52467778468141
3416272 0.8492265401959285 0.5184540582265966
3465776 0.853344810256909 0.5119868922470927
3515280 0.8569651198702971 0.5054742501455738
3564784 0.8601735295181845 0.4991863931200499
3614288 0.8639812209641007 0.49335546606861863
3663792 0.8671415105899202 0.487368206989724
3713296 0.8704780423386752 0.481702525088609
3762800 0.8736329600200898 0.4757069560868479
3812304 0.8766489580594946 0.4711267903104222
3861808 0.8794941517967966 0.46542075008713674
3911312 0.8824179572263822 0.4603986656274451
3960816 0.8852096466361656 0.4548280604856186
4010320 0.8875736732667701 0.449870280469884
4059824 0.8899413797443059 0.44452652807716425
4109328 0.8927278559998089 0.4400539554570381
4158832 0.8950470987787288 0.43556764822226496
4208336 0.8976803116581562 0.43074285401026213
4257840 0.8998005933294756 0.4259341063125297
4307344 0.9018249306254934 0.4215170470683715
4356848 0.9036782098728484 0.41682004764513925
4406352 0.9053870159294554 0.41309725367456857
4455856 0.9082617341038278 0.4088635332160083
4505360 0.909979669679264 0.40432376153959076
4554864 0.911395787672777 0.4002330087199676
4604368 0.9129175764118148 0.39634854233738387
4653872 0.9150181911357569 0.3926224113344559
4703376 0.9168003932630805 0.38857105640208306
4752880 0.918785279758651 0.3850321766193496
4802384 0.9201069414027653 0.3808869936588214
4851888 0.9214175840093649 0.3770758332452649
4901392 0.9229888366704578 0.37339253428911967
4950896 0.9242536636479143 0.3701716338603636
5000400 0.9259432950711315 0.36690615301433877
5049904 0.9270137624467573 0.3627548558438453
5099408 0.9286847885486558 0.35997837554239515
5148912 0.9299051827313677 0.3566956641183411
5198416 0.9313420915370353 0.3533963043135213
5247920 0.9327128613522138 0.35004604946589274
5297424 0.9334223406514497 0.3468438101357436
5346928 0.9346867048294434 0.34354618990685515
5396432 0.9360056897419285 0.34088756738784626
5445936 0.9367685521988571 0.33813798934331163
5495440 0.9381616637280806 0.33529708018146226
5544944 0.93927155035628 0.3321657376172747
5594448 0.9403449977997541 0.32920177366296766
5643952 0.9415598979450298 0.32600496184443295
5693456 0.9425035204940463 0.32377355718308465
5742960 0.9429063435797957 0.3209534520187699
5792464 0.9440628611165361 0.3184687197559344
5841968 0.9447200791913027 0.31543318347860766
5891472 0.9455948323853908 0.3129393388313402
5940976 0.9464418013038574 0.31054674588022896
5990480 0.9473846022555259 0.30792942985402005
6039984 0.94841338599476 0.3053686076465137
6089488 0.9490387957263179 0.302947259631757
6138992 0.9500173764248339 0.3005355706700586
6188496 0.9507454663614762 0.29806890928429475
6238000 0.9513144599886953 0.2958088785717258
6287504 0.9518167810121925 0.2935841139953385
6337008 0.9529786683676507 0.29143759939667074
6386512 0.9539153410801267 0.28909435409820655
6436016 0.9547164328369343 0.28687214435047503
6485520 0.9549233682326259 0.2842907552183737
6535024 0.9558526576768093 0.2824136353979329
6584528 0.9566209201597059 0.2801887866988361
6634032 0.9567580793334002 0.27802023403573123
6683536 0.9578651379539205 0.27603460972238597
6733040 0.9584787369580912 0.27372605141026174
6782544 0.9594504586863095 0.2719623439840494
6832048 0.9597557512722624 0.2698515492277387
6881552 0.9600515082311359 0.26808100245568617
6931056 0.9610183305608458 0.2657127482039885
6980560 0.9611628744274114 0.26402942628732123
7030064 0.9613627294440888 0.2622896994151977
7079568 0.9623694479475693 0.26031127550363964
7129072 0.9630177281843844 0.2583877364861709
7178576 0.963226333788242 0.2562059442987777
7228080 0.964043129811206 0.25471370304866564
7277584 0.9639225224585494 0.25283909059135207
7327088 0.9646521113181716 0.25157590605331975
7376592 0.9653638509945343 0.2495511280521098
7426096 0.9659813675358907 0.24738893021945985
7475600 0.9658637786637762 0.24613309385995244
7525104 0.9670101513798357 0.24410340745550024
7574608 0.9670548552868128 0.24253698011840502
7624112 0.9671141353047686 0.24090061796560328
7673616 0.9676688189720515 0.23918377173027455
7723120 0.9679769452398986 0.23776491373733366
7772624 0.968772197508086 0.23640338606742123
7822128 0.9691356160430844 0.23473239264870296
7871632 0.9698475850258971 0.23277033779974945
7921136 0.9697869996614275 0.23180618372645898
7970640 0.970335974848263 0.23007574720763843
8020144 0.9706632835720335 0.22853607592635758
8069648 0.9707857880315351 0.2273445659695028
8119152 0.9717229332438719 0.22598080828118167
8168656 0.9718688054524018 0.22426768134899724
8218160 0.9721829990330259 0.22274984721327917
8267664 0.9723258766541177 0.2212390743759128
8317168 0.9725769275994983 0.22006253169034248
8366672 0.9723590532686043 0.21861911514870397
8416176 0.9730760996287847 0.217670311272911
8465680 0.9735697815858424 0.21578488621872086
8515184 0.9743704018100441 0.2143639079551091
8564688 0.9742268811506752 0.21306992684177478
8614192 0.9742426167140682 0.21190305255726766
8663696 0.9748612346971579 0.21051134272310332
8713200 0.975164308351889 0.20925895683373827
8762704 0.9753598455154485 0.2079816859362788
8812208 0.9757816325664505 0.20691704906424396
8861712 0.9757276170456448 0.2055988375414132
8911216 0.9762810682232724 0.20426305892279314
8960720 0.9768470273770418 0.2027543756207935
9010224 0.97663048849239 0.20175985136967453
9059728 0.9771124921434955 0.2006172330778642
9109232 0.9772161823236721 0.19927255889036233
9158736 0.9771763299957432 0.19823738695780446
9208240 0.9780441272400586 0.1972709460585671
9257744 0.9782979971307809 0.19604274563690074
9307248 0.9783761415497821 0.19507170194014714
9356752 0.9785534615191102 0.19354079807988991
9406256 0.9784528877385413 0.19240343387703757
9455760 0.9788091932280559 0.19126734573441925
9505264 0.979227813686667 0.19037106640016496
9554768 0.9794690216736424 0.18901565096007056
9604272 0.9794977682351218 0.18819831790176156
9653776 0.9797520754061018 0.18719753204675937
9703280 0.9799474599306442 0.1861100208038916
9752784 0.9802397667831872 0.18536733039649894
9802288 0.9807818055671225 0.18384050633495097
9851792 0.9808840769954622 0.18290911565593293
9901296 0.9807522496950113 0.18223977591629217
9950800 0.9808345179024558 0.18101174425020503
10000304 0.9812184178881314 0.1800366744507805
10049808 0.9810221531431951 0.17927555705406825
10099312 0.9817993866928946 0.17808419204748677
10148816 0.9820178304824314 0.1766767328796297
10198320 0.9819596514864584 0.17622751958993943
10247824 0.9823870870825209 0.17499562699343613
10297328 0.9821178234327136 0.17409048791890835
10346832 0.9822162217622226 0.1727460391163673
10396336 0.9824291683896546 0.17213178218461664
10445840 0.9828747673735612 0.1714566928780499
10495344 0.9830730748904715 0.17036247125688178
10544848 0.9830243861915444 0.1698399633102675
10594352 0.9834161438022033 0.16851239563253778
10643856 0.9841151121001364 0.16765807312732114
10693360 0.9835620372329144 0.1662835062982312
10742864 0.9835356941192828 0.16590463683170856
10792368 0.9837726980719258 0.16518702841853364
10841872 0.9843453434989461 0.16382235948697677
10891376 0.9846746953458453 0.16274585789041865
10940880 0.9840717282188643 0.16253077156487625
10990384 0.9849044507582041 0.161958620786539
11039888 0.9848094080755754 0.16073541247549228
11089392 0.984314376607243 0.15967533154059804
11138896 0.9851952325951024 0.15942394693515083
11188400 0.9853481809972605 0.15827299125345826
11237904 0.9847578997834625 0.15774442333471483
11287408 0.9855933722999481 0.15702801198926686
11336912 0.9856699569740335 0.15657043704615012
11386416 0.9855821750161129 0.15533859681189105
11435920 0.9861365829063864 0.1537836587642026
11485424 0.9859739129940244 0.15311181759350406
11534928 0.9857418540675638 0.15305278977742134
11584432 0.9861283732710612 0.1519590745144415
11633936 0.9858783485664321 0.15111654258153734
11683440 0.9860907924501279 0.15086266560409875
11732944 0.9862620223822866 0.1499938347499669
11782448 0.9862662390049927 0.14895494470777879
11831952 0.986570365206922 0.1482559855074764
11881456 0.9868783143085489 0.1475155349301946
11930960 0.9872376897257074 0.14667958374066548
11980464 0.9874247966527007 0.14564408244139807
12029968 0.9871616297126928 0.14479752449557362
12079472 0.987103916362115 0.1442984805382797
12128976 0.9875386496880832 0.14396795450809516
12178480 0.987474658540949 0.14299487759219065
12227984 0.9872944050396772 0.142450017221254
12277488 0.9876494622392151 0.14182867394848844
12326992 0.988096641995565 0.14138567107789105
12376496 0.9881697634501578 0.1404867313738345
12426000 0.987731770454365 0.13947948773056648
12475504 0.9878746842512961 0.1389593491216875
12525008 0.9880770896003338 0.13799791145764662
12574512 0.9884911472035408 0.13754277338394535
12624016 0.988447162950608 0.13679915760580835
12673520 0.9887447538600816 0.13650807671764364
12723024 0.9884200059763034 0.1357928331168663
12772528 0.9886954865837119 0.13497276732105248
12822032 0.988918251655663 0.13447089004153187
12871536 0.989128100245818 0.13357831935794662
12921040 0.9890622242529371 0.13304445995573488
12970544 0.9893276304345693 0.13254639317902694
13020048 0.9891879527009699 0.13146654894298643
13069552 0.9891166713338579 0.13123870620829314
13119056 0.9893034397158297 0.13089649405585374
13168560 0.9894436778192106 0.1298632017716494
13218064 0.9895530907195553 0.12934360726238192
13267568 0.9896751395153549 0.1288802396861722
13317072 0.9897200899162127 0.12814542837455595
13366576 0.9899461043554895 0.12756344626099278
13416080 0.9898946744574505 0.12651624731653666
13465584 0.9902965430142827 0.12629118264118463
13515088 0.9899381418611887 0.12544754126009536
13564592 0.9902507664992032 0.12503064902095834
13614096 0.9900047803265705 0.12483018060516472
13663600 0.9903649350667398 0.12391042270474974
13713104 0.9906140622604875 0.12329370865156423
13762608 0.9903813424691943 0.12292720567896186
13812112 0.9903263173787514 0.12219844429364415
13861616 0.9902851377941843 0.12192900770749907
13911120 0.9906753962829371 0.12102110364456206
13960624 0.9909833306308204 0.12099181910180974
14010128 0.990654532806514 0.11992726035156318
14059632 0.9904464368221679 0.11950347459877078
14109136 0.9911744135867837 0.11900606123419949
14158640 0.9905282899290496 0.11870165966626789
14208144 0.9911466798496141 0.11806365251994846
14257648 0.9910241741968956 0.11743525026156372
14307152 0.9911650957524129 0.11683535197573043
14356656 0.991071931231236 0.11618000668991459
14406160 0.9913232521676768 0.11559073868041572
14455664 0.9912842030608509 0.11506044775392209
14505168 0.9912418770040542 0.11480474493992142
14554672 0.9916197999364851 0.11416534931909958
14604176 0.9918036503933144 0.11329607568301621
14653680 0.9917410246930546 0.11333636300995197
14703184 0.9918034305051145 0.11285308512377935
14752688 0.992019746078242 0.11234220604857402
14802192 0.9922164775823075 0.11149153628804279
14851696 0.9916906127774879 0.11072424640024846
14901200 0.9919228756104044 0.11078947453620384
14950704 0.9916188843520949 0.10998043149363344
15000208 0.9918500617221029 0.10976593881991797
15049712 0.9921540904578376 0.10949126207229419
15099216 0.9921750662454899 0.10823601226406471
15148720 0.9920061484630224 0.1082909758803048
15198224 0.99209774927654 0.1076082766925597
15247728 0.9921538652186265 0.10710900320596754
15297232 0.9924714529822871 0.10663414735494396
15346736 0.9925529817442743 0.10663200988163063
15396240 0.9923764599446169 0.10553925862962625
15445744 0.9924526198984454 0.10548765607514791
15495248 0.9924476642616642 0.10492190758160468
15544752 0.9924931827088169 0.10415335627985751
15594256 0.992337481441681 0.1039515356231225
15643760 0.9928100402817398 0.10370848390732788
15693264 0.9926976923923286 0.10286425104066042
15742768 0.992518170394095 0.10274348359078353
15792272 0.9930681817685931 0.10228335227320831
15841776 0.9931843307087636 0.10179390477383553
15891280 0.9930164209969551 0.1009922862443535
15940784 0.9930513549171142 0.10101325569676996
15990288 0.992927834563622 0.1000506727095827
16039792 0.993014022096436 0.09980578716817362
16089296 0.9935251780023503 0.09940874200817904
16138800 0.9935909163753744 0.0989601311098149
16188304 0.9928977878244319 0.09839862057907896
16237808 0.9931398811705882 0.09854858048399949
16287312 0.9933124701525216 0.09731826833450652
16336816 0.9932706941930161 0.09739954508470185
16386320 0.9938669747705283 0.09670961124339202
16435824 0.9931029302264762 0.0961685036970224
16485328 0.993308673324034 0.09564722289021776
16534832 0.9930533618829717 0.095564909782932
16584336 0.9935449765490111 0.09558054337582338
16633840 0.9932907389815563 0.09525635094887845
16683344 0.9936069668745964 0.09421882996791492
16732848 0.9934117768418662 0.09377789135652292
16782352 0.9936302247619307 0.09314332859763036
16831856 0.993617547031541 0.09290126364296132
16881360 0.993607521079051 0.09278870535229602
16930864 0.9939173542965842 0.09179091367716478
16980368 0.9941369775044959 0.09175462156221922
17029872 0.9940160582126367 0.09161019199314596
17079376 0.9937843962873618 0.09141542610761759
17128880 0.9941790690716 0.09086535699549178
17178384 0.9939869226648561 0.08991401244405138
17227888 0.9940051730228163 0.09011260080548375
17277392 0.9942170855982997 0.0893666428094659
17326896 0.9938556581236258 0.08939460867426863
17376400 0.9942851880284576 0.08857733290870187
17425904 0.9939246487954452 0.08848037194505888
17475408 0.9939906176572058 0.08802612943100077
17524912 0.9943702809823641 0.08730311031812411
17574416 0.9940564519569824 0.08701271300171366
17623920 0.9938574448685853 0.08690929508163533
17673424 0.9945175202399218 0.08668814028086211
17722928 0.994273020230399 0.08602295969522926
17772432 0.9944052893032846 0.08579034466832434
17821936 0.9946841004424217 0.08532129792832992
17871440 0.994280389136725 0.08536272860772964
17920944 0.9942517281173553 0.08452286208632337
17970448 0.9942525517210666 0.08416165206986612
18019952 0.9943495696267747 0.08404090093281312
18069456 0.9946324875300145 0.08348319742933807
18118960 0.9949109360229158 0.08301069660190716
18168464 0.9950163660443878 0.08295594047297249
18217968 0.9949904077240844 0.08211858574036576
18267472 0.9946524310811284 0.08240439510393407
18316976 0.9947742069197116 0.08158841862282684
18366480 0.9947479463503144 0.08131897990304154
18415984 0.9947728094949825 0.0810805707832554
18465488 0.9950112880103276 0.08066838115134675
18514992 0.9951189855245616 0.0803090555177346
18564496 0.9948208070831317 0.07982926853578343
18614000 0.9949452340462572 0.07931456004199394
18663504 0.9949640875596376 0.0792760712950899
18713008 0.9948305464251628 0.07893233612397274
18762512 0.9952702568634887 0.07870497815753719
18812016 0.9951502959576334 0.07795009691791398
18861520 0.9946291107672661 0.07791606849441438
18911024 0.9951657306214722 0.07765019817315603
18960528 0.9947637506393842 0.07692945021269912
19010032 0.9947724952629525 0.07692072296500475
19059536 0.9950929586169084 0.0766156593524529
19109040 0.9950487849746985 0.07588682669872861
19158544 0.9951451525605508 0.07594784892234409
19208048 0.9949293650570622 0.07582056754848601
19257552 0.9950499591289687 0.0753115035611209
19307056 0.9951589121838952 0.07501842144608288
19356560 0.9953299377375474 0.07460031883571722
19406064 0.9954437249255959 0.07408346526217552
19455568 0.9953389435310306 0.07386544769866282
19505072 0.9954746963829468 0.07349974824278063
19554576 0.9952092394372469 0.07318826958332046
19604080 0.995448646474654 0.07279588181572365
19653584 0.9955179907957477 0.07265971094757162
19703088 0.9954201944524428 0.07236170152604682
19752592 0.995876503425511 0.07204806344122845
19802096 0.9954067796500125 0.07180982541101978
19851600 0.9952911588060902 0.071582852445726
19901104 0.9953494458987059 0.07119968450649031
19950608 0.9951705745362396 0.0706519772645281
20000112 0.995695662838691 0.07056031588288082
20049616 0.9956305580893433 0.06993506363970681
20099120 0.9954022282746107 0.06963732313132921
20148624 0.995623670476409 0.06951662900270139
20198128 0.9956316821453749 0.06935947541110803
20247632 0.9954088679537888 0.06911408189251297
20297136 0.9954390734610012 0.06810697929172521
20346640 0.9954796984748954 0.06853740844787165
20396144 0.9955893332365153 0.06819803954595739
20445648 0.9959775979860981 0.06767035149724547
20495152 0.9955939169454643 0.06732794118058769
20544656 0.9956655814928346 0.06715312153040087
20594160 0.9952855874901678 0.06686443793372343
20643664 0.9957426246807877 0.06640657849951669
20693168 0.9957837168397049 0.06593736400834285
20742672 0.995600613964093 0.0657448773041494
20792176 0.9954970483202858 0.0656710215544623
20841680 0.9959321574455153 0.06501594685883376
20891184 0.9959677961952602 0.0655183986270339
20940688 0.9955094166909582 0.06506147353682672
20990192 0.9955554439254709 0.0643136383173155
21039696 0.9955084227249215 0.06404320506042632
