# HZ S RI R 50
50000 0.32526294308215037 -5.876984052359717e-06
99504 0.32532081770685684 -0.00018732625420573229
149008 0.32509978899691555 0.00019310193916675347
198512 0.3257174443331776 0.0004383006617492473
248016 0.32547355528362143 0.0006988671667346012
297520 0.3249961709367068 0.0002183981279838517
347024 0.3255747306049457 0.0004765357298228681
396528 0.32569106830948136 0.00034718607110061973
446032 0.32517625358418767 0.0005301472066459436
495536 0.3256296412954395 0.0006243262347256839
545040 0.3254649435196257 0.0005098026027219693
594544 0.3253230741413538 0.001012567779531477
644048 0.3252000565249341 0.0008673054881196006
693552 0.32534590533641133 0.0005353348249534299
743056 0.32526320629192246 0.0010391556148944684
792560 0.325427043707248 0.0009998723820342163
842064 0.3253589166196394 0.0011723680772064682
891568 0.325111661990902 0.000905116534159962
941072 0.32545782086555664 0.0010594461016510252
990576 0.32518045120894895 0.0012444301969651787
1040080 0.3253570713221627 0.0015380018917344356
1089584 0.325420383428061 0.0013007101133011253
1139088 0.3253641642796046 0.0013213619376501436
1188592 0.3253475310177809 0.0013825874596723649
1238096 0.32544580606865786 0.0016063194203143375
1287600 0.32552174222365154 0.0014946867394459774
1337104 0.32510592394436877 0.0017491018072911411
1386608 0.32594196553212784 0.0015464754423033433
1436112 0.3253526984166454 0.0015250340224812605
1485616 0.32545414430300285 0.0019163765985184301
1535120 0.32549596373982603 0.0019198664077198066
1584624 0.32527361826561213 0.002372776839207304
1634128 0.32556591272851415 0.0018118862177799496
1683632 0.32559885774778297 0.0019343291261905387
1733136 0.32532376127308077 0.0022243674716828773
1782640 0.3253527457599486 0.002158074831199531
1832144 0.32511420457629314 0.0021477146590677004
1881648 0.3254738868883307 0.002119706210231471
1931152 0.32536650304557385 0.002238640195956191
1980656 0.3254863755436112 0.0023653607510481715
2030160 0.32552363018240177 0.0023527329559064527
2079664 0.3253131193325489 0.0026289750984932843
2129168 0.32529873997047976 0.0024334826698161056
2178672 0.32546369462892516 0.002645156904069015
2228176 0.3256126841683109 0.0022599791942431962
2277680 0.3252450336456475 0.0026581404631639957
2327184 0.32547322522177063 0.0025902323432181627
2376688 0.32519250430884306 0.0030019299228621972
2426192 0.3255802653364675 0.002781210060355782
2475696 0.32554933668446945 0.002654397565640598
2525200 0.3254787490546507 0.0030869484010647066
2574704 0.32533290548936006 0.002961768356766209
2624208 0.32545273771493677 0.0027671894033619387
2673712 0.32531159500887247 0.0030921944532167527
2723216 0.32553164921302985 0.0031111252336713563
2772720 0.32550100935132753 0.003054108859026206
2822224 0.3256280497074214 0.003040633783603223
2871728 0.32528591471776896 0.003390716383598818
2921232 0.32522182759996277 0.003577598058794225
2970736 0.32547592522121865 0.0032800048334824293
3020240 0.3256646455293415 0.003468932902734198
3069744 0.32524213614976055 0.0033858247943346397
3119248 0.3251915125178579 0.0034725430031467045
3168752 0.32559283340334433 0.0037786677682566535
3218256 0.3254008115357112 0.0035588315378775994
3267760 0.3255027448548006 0.0035467442801373674
3317264 0.3254483817281058 0.0035029430994106565
3366768 0.32568475066231445 0.0039756530050567215
3416272 0.32567288016647605 0.004160554881489616
3465776 0.32558693470297695 0.0038574381263324466
3515280 0.3255399371868553 0.003698465687021309
3564784 0.32543089487116245 0.003961462561580399
3614288 0.32557917693420096 0.004142836249554559
3663792 0.3256011190158125 0.003990250629785131
3713296 0.32549132758925853 0.004102362944933063
3762800 0.32571915919356664 0.004043866387485713
3812304 0.3258486541946265 0.004415787051823068
3861808 0.32563950154063565 0.00430695148644282
3911312 0.325573235787568 0.004568523907644745
3960816 0.3254469644679218 0.004472969875187502
4010320 0.32569951408621245 0.0042365233780637815
4059824 0.3257429476720171 0.004433297160720545
4109328 0.325636065974825 0.004612893182009122
4158832 0.3257505892991738 0.004588900536251275
4208336 0.3253781504985564 0.004301674342359074
4257840 0.3254442768117572 0.005039468585078797
4307344 0.325570314939991 0.004886556807194136
4356848 0.32539498572273434 0.004916827481435789
4406352 0.32547464075114957 0.004880445806205428
4455856 0.32559434963338746 0.005226225644539243
4505360 0.325852204436818 0.005007380633606954
4554864 0.3258666994834277 0.004869524174146447
4604368 0.32553283799956173 0.00499962253157397
4653872 0.32551301970502095 0.005116131853496625
4703376 0.3255016611521557 0.0052559392231608494
4752880 0.32574061019650524 0.005733735822433569
4802384 0.32583108315829096 0.005658681720411804
4851888 0.32552641261401144 0.0053793167858335045
4901392 0.3258211924685478 0.0056081362868475515
4950896 0.3254597255662842 0.0055792778670529465
5000400 0.325391698476703 0.005711864545947099
5049904 0.325509368907602 0.0058680121762359145
5099408 0.325930897040538 0.005832652505218442
5148912 0.3254392579347734 0.005998737417716741
5198416 0.3257265450456939 0.006113955923732984
5247920 0.32576625454086927 0.0056625615468002145
5297424 0.32550932297966073 0.005843206337506811
5346928 0.3258076102315536 0.005875376200173756
5396432 0.32583693253529256 0.005996630603977531
5445936 0.3259454712594337 0.00602019689989475
5495440 0.32569693717278686 0.006259674128685618
5544944 0.3257803086530021 0.006378475408081424
5594448 0.3257835030252291 0.0064288175114406414
5643952 0.3255814290884432 0.0061706083372238445
5693456 0.3257259036323728 0.006398359449104632
5742960 0.3254181573380311 0.0063769453986021706
5792464 0.32556123748851795 0.006371530690585842
5841968 0.3257409615854499 0.0062546684592514395
5891472 0.32548248852304323 0.0066986493351754595
5940976 0.3254950887893337 0.006534230847426388
5990480 0.32571240439681937 0.006776308830218192
6039984 0.32596262827576034 0.006723213077737254
6089488 0.3257699695689135 0.006983729409823586
6138992 0.32581774649632766 0.0070552836130241044
6188496 0.32573398699363804 0.006757764596579199
6238000 0.3258376927074695 0.006668753293015813
6287504 0.3255708839051559 0.007085592817947383
6337008 0.3260327231124722 0.0071149729164577576
6386512 0.32595205238555397 0.007000257712527375
6436016 0.3259700768222963 0.007035034168047734
6485520 0.3259662615953424 0.006960860037769186
6535024 0.325992510423987 0.0073923205341077484
6584528 0.32591123671573374 0.007643776733649047
6634032 0.32555336481645997 0.007291322478550814
6683536 0.3257334206956972 0.0075609540633974435
6733040 0.3255713717055022 0.0074954190446673286
6782544 0.32593980621351126 0.007989496321216372
6832048 0.325628801119471 0.007667466313992048
6881552 0.3259942493677309 0.007540661347122824
6931056 0.32576560257037546 0.007596091242795595
6980560 0.3257841312286108 0.007871029445627174
7030064 0.3257675488020056 0.007573128269914631
7079568 0.3255095348555613 0.007689995562154875
7129072 0.3258746585002354 0.00781310450401122
7178576 0.32566359060974465 0.007923082351439376
7228080 0.3259780127784823 0.008032627681061805
7277584 0.3255632174091172 0.00809086340162126
7327088 0.3256747305350443 0.008284426219927293
7376592 0.3257207052800619 0.00825637983312769
7426096 0.3260454166650868 0.008257002706854777
7475600 0.325761260706279 0.008325135894455351
7525104 0.32602211588485136 0.008423150231727641
7574608 0.3259106431965686 0.00848438431164082
7624112 0.32566825666625715 0.008439900489991357
7673616 0.32593066514352864 0.00867637718053152
7723120 0.32603261374145875 0.008569862564932241
7772624 0.3256535645555728 0.008648045796043757
7822128 0.3257318893219498 0.008761242505708245
7871632 0.32609913642698896 0.008648249536439934
7921136 0.32574790038995677 0.008891503580258257
7970640 0.32591842129707604 0.009229922448664179
8020144 0.3258672491881977 0.008732041390276078
8069648 0.32583568523665346 0.008972440505024187
8119152 0.3260168085726654 0.008926356696235387
8168656 0.32636209909654446 0.009332661336745145
8218160 0.3257770890794035 0.008870089532246725
8267664 0.32561354946686394 0.00914628011107133
8317168 0.3257521712377673 0.009286718248532859
8366672 0.3257509990362506 0.009268701222381884
8416176 0.3259839619714045 0.009259600145164148
8465680 0.3259796901534848 0.009279596069425793
8515184 0.32602825569373556 0.009466031457832667
8564688 0.3259251568434359 0.009365171876437836
8614192 0.32593316644847586 0.00945718546172603
8663696 0.3257029891231486 0.00963786781473011
8713200 0.32607950981095657 0.009553837863134393
8762704 0.3257553598305253 0.009561251811772628
8812208 0.32579518663722923 0.009694664292907842
8861712 0.32565570341466826 0.009946074633995763
8911216 0.3258397293090368 0.009876983686532373
8960720 0.32594392288338947 0.009849181473541217
9010224 0.3254610602696885 0.009906658671770608
9059728 0.32584266891993385 0.009775099924186268
9109232 0.32590442606929537 0.010089833438640354
9158736 0.3258806077528363 0.010090502784769266
9208240 0.3260041955055122 0.010439514359321281
9257744 0.3258101625415039 0.010015127563215119
9307248 0.3256402382513872 0.010270893266196615
9356752 0.3259912320807019 0.010405341985852565
9406256 0.3259938192010258 0.010218659717958833
9455760 0.3258613341331649 0.01008254430722065
9505264 0.32597676762550354 0.010380543923102642
9554768 0.3259133514309129 0.010493946955734319
9604272 0.326104968341497 0.010341971617304551
9653776 0.325935760295057 0.010620748831024625
9703280 0.3258569657670254 0.010806320339119787
9752784 0.325934214653821 0.010898349109662009
9802288 0.32614054476010085 0.010586749059841555
9851792 0.3258105254022527 0.01099538223009125
9901296 0.325943593254675 0.0111208175679221
9950800 0.3260731857259935 0.010609236541012904
10000304 0.32591154144455037 0.011073617153140314
10049808 0.32567228258258185 0.010994090846552344
10099312 0.3260830805049709 0.011189133902924897
10148816 0.32610644302909797 0.011345401477933083
10198320 0.3261244578625506 0.011143608484006171
10247824 0.3261446872844191 0.011376758364514291
10297328 0.32592530844487444 0.01147664054578197
10346832 0.3258621243281381 0.011389791333699675
10396336 0.3258999167393251 0.011502627349718127
10445840 0.3260237381856609 0.011677678701420524
10495344 0.3258834254369978 0.011607853459691165
10544848 0.3261300005902168 0.011695177690193563
10594352 0.3260023324578811 0.01168116009299406
10643856 0.32614488419187504 0.011945966861149047
10693360 0.32568473531301045 0.011655820982818615
10742864 0.32599414880857897 0.012044802608156206
10792368 0.3261585829557927 0.011838711393604933
10841872 0.326209808558421 0.01187313719950382
10891376 0.32617814972276316 0.012168485933527368
10940880 0.32587944901736343 0.01179549190329871
10990384 0.3260632218940327 0.012095676595682702
11039888 0.3260921990114518 0.012272561438765175
11089392 0.32582403233838775 0.012015572233516356
11138896 0.3259629740825764 0.012329869242706466
11188400 0.32595379471556934 0.012434498496743829
11237904 0.3261504723541277 0.012330604281616784
11287408 0.3261879215184901 0.012369079558513662
11336912 0.3260345537938589 0.0123294301733379
11386416 0.32604853605183487 0.012470586143119734
11435920 0.3262214105876829 0.012571558183683695
11485424 0.3262833627907005 0.012632394932388203
11534928 0.3258490376511571 0.012650926999771665
11584432 0.32592955442982596 0.013247773507641314
11633936 0.3262463988945719 0.012803075915466025
11683440 0.32611765809818344 0.012761353887050934
11732944 0.32623698129097806 0.012903643648484715
11782448 0.3261220291790815 0.012966106018396381
11831952 0.3261448753879133 0.013191217819906035
11881456 0.3262325949855442 0.012960662591601077
11930960 0.326029966729516 0.013258862943873876
11980464 0.32608802203338894 0.013119951838658751
12029968 0.32616872748387465 0.013370279341993897
12079472 0.3260839986016469 0.013275974656808794
12128976 0.3260798225984764 0.01347081140810379
12178480 0.3262689259044755 0.013390526412775248
12227984 0.32629622803145647 0.013197366548595412
12277488 0.32596106078527887 0.013518873312720319
12326992 0.32596984583727134 0.01341736673221933
12376496 0.3262232915096396 0.013600946350930818
12426000 0.3260095050922738 0.013406050562139745
12475504 0.3261131437862997 0.013402331980118849
12525008 0.3262313291180494 0.013700725119220325
12574512 0.3263406411214913 0.01394302051801434
12624016 0.32634016797655147 0.013913895061806025
12673520 0.32607917253524404 0.014004434327552193
12723024 0.32630723588459604 0.013705465049831689
12772528 0.32610071893314924 0.013921967678388807
12822032 0.3261611163628009 0.014126739017408317
12871536 0.3263620966071982 0.014068276037305025
12921040 0.325995000480725 0.014126840758303245
12970544 0.32613149550832055 0.014465327883833866
13020048 0.32637386508118255 0.01466368691230922
13069552 0.32610462777219745 0.014258864778278563
13119056 0.32607360600803614 0.014275656482477696
13168560 0.3260328161328555 0.014526408335302252
13218064 0.3262300209369568 0.014318529399769643
13267568 0.3260024784435034 0.014859655797915105
13317072 0.3260049790080031 0.014837338854781067
13366576 0.3263955523012374 0.014525098713634433
13416080 0.32637718813111644 0.01488204304140458
13465584 0.326379793880391 0.014537422271055362
13515088 0.32632240162426074 0.014550231040714342
13564592 0.32637802332358135 0.015030809795514164
13614096 0.3261265360018601 0.014994293796453732
13663600 0.3260847556503775 0.015088951130593099
13713104 0.32630917005275223 0.014831112523938315
13762608 0.3261301362344942 0.015333454097073087
13812112 0.32612993223899905 0.015145156536315577
13861616 0.32601585102777 0.015153006296476118
13911120 0.32626574395661406 0.01526335708525021
13960624 0.32640768006398513 0.015173649691151135
14010128 0.3263918109609091 0.014946937957728303
14059632 0.32620821038395376 0.015323091630999836
14109136 0.32629873180699276 0.0153580058884791
14158640 0.3262693822951304 0.015373415676199674
14208144 0.3263805928019556 0.015431273009732344
14257648 0.3261568224040098 0.015626336922233947
14307152 0.3264946666245002 0.015700074219042463
14356656 0.3262841346002974 0.01581752700013915
14406160 0.3263448032445889 0.01582281483155926
14455664 0.32618262835811407 0.015899685764461435
14505168 0.32631751748477983 0.016029259909190303
14554672 0.326338532901353 0.01600269932470207
14604176 0.32648410564395364 0.01594071847049789
14653680 0.3263955367116499 0.016162896556441386
14703184 0.32650193539028893 0.016053563260655393
14752688 0.3264641598140032 0.016242106429152206
14802192 0.3265213374930294 0.01628596419552708
14851696 0.3266438783266662 0.016170362512892875
14901200 0.32662885145872256 0.01633826530988009
14950704 0.32640006882303474 0.016348618964965013
15000208 0.3262915965770657 0.01646244522095229
15049712 0.3262152549390018 0.01629994166960447
15099216 0.3261317378678263 0.01639662218377438
15148720 0.326558049340983 0.016699272025819684
15198224 0.32637321309467543 0.016708368053494776
15247728 0.32645171686323665 0.016428287610572575
15297232 0.32649472959730824 0.016667606658816708
15346736 0.3266192524673242 0.016797613017555963
15396240 0.3263941875848782 0.016848332664155714
15445744 0.32661498699229236 0.01694487885635445
15495248 0.3264875886743883 0.01699655834841621
15544752 0.3267268672968114 0.01688301216462051
15594256 0.3264890644775729 0.016811156798463275
15643760 0.3265311180360435 0.0171210003191519
15693264 0.32628491075075794 0.017095210802693998
15742768 0.32635442055007663 0.01731338571024428
15792272 0.32666767210775716 0.017332463143450376
15841776 0.3265702411970264 0.01753141206038074
15891280 0.32681693990175037 0.0173637564682
15940784 0.326421028363769 0.017356835106605403
15990288 0.32635792248459 0.01726918643510282
16039792 0.32662561953430846 0.017781843582714577
16089296 0.3267840016654003 0.017774973750674158
16138800 0.3264897847107826 0.017766665482246403
16188304 0.32652296676713727 0.017764824613897136
16237808 0.32664295302382407 0.017758037567767816
16287312 0.3263490822930625 0.018014518480515267
16336816 0.32655484296925213 0.018039208101385196
16386320 0.326792972112588 0.01793854658141165
16435824 0.3263901640519714 0.017865149049912404
16485328 0.3264286976639757 0.01820153608219411
16534832 0.3268353421242332 0.018106168673465612
16584336 0.32644742841135516 0.01827270212443136
16633840 0.3265280671162144 0.01838306951406939
16683344 0.32660264193062194 0.018006928092156503
16732848 0.3266239914487021 0.018396163692209245
16782352 0.32669442970110385 0.01813885262599922
16831856 0.32655936284104714 0.018265783827844103
16881360 0.3263874544142022 0.018364964463504302
16930864 0.3270038134408707 0.018517283889246776
16980368 0.32656487227578135 0.018373585577101385
17029872 0.32654536291082703 0.01857836563861802
17079376 0.3265443271122843 0.01866320896972901
17128880 0.3264884964327827 0.01888931628485031
17178384 0.32686456703135414 0.0188840321554235
17227888 0.32677571729505905 0.018983976961359516
17277392 0.3268081967167647 0.018714273148399675
17326896 0.3264910840972451 0.018766544031775637
17376400 0.32665878258499653 0.018976778247689077
17425904 0.3267702355580754 0.01914164044559533
17475408 0.32679752326652295 0.019011195640370404
17524912 0.3265553883460148 0.018897755852687548
17574416 0.3269196832899383 0.018702486668480966
17623920 0.32694592350767504 0.019162877440633164
17673424 0.326484471537044 0.019353239804306782
17722928 0.3268728035271553 0.019387785040388846
17772432 0.3266000804708182 0.019506526724569147
17821936 0.32680984785230144 0.01943495547598367
17871440 0.3263468310897075 0.019737269025501873
17920944 0.32670441967129465 0.019584521577568046
17970448 0.3268395813366306 0.019690041196057984
18019952 0.32662464142789915 0.019497027813728255
18069456 0.32674068192184763 0.019938038855274686
18118960 0.3267963112245337 0.019717664394864727
18168464 0.32691880647679294 0.01966266626330597
18217968 0.32700180402885093 0.02003492073245192
18267472 0.32651015867635325 0.020190446291851735
18316976 0.3269746707352139 0.019944954853254523
18366480 0.32666194045311925 0.019880262404670078
18415984 0.3268843057532221 0.020172187387752078
18465488 0.3267346013168814 0.020020231864812332
18514992 0.32691965451326943 0.020382830733484937
18564496 0.32672242426345827 0.020223870740988647
18614000 0.3267104701310005 0.02037040480848008
18663504 0.3271099063150009 0.020545118229968663
18713008 0.3270016804597235 0.020171871480130592
18762512 0.3269123266365863 0.02055996889673465
18812016 0.32693031749325124 0.020366131065299296
18861520 0.3265910403028063 0.020526501239030007
18911024 0.32699162187902825 0.020400668581685835
18960528 0.32684641037715206 0.02042244884104183
19010032 0.32695908679054525 0.02071672866882717
19059536 0.32710513053997975 0.020510050197048175
19109040 0.3267871825047008 0.020570103488770107
19158544 0.3265906958554506 0.021165954222085902
19208048 0.3269076938764236 0.02107178053870991
19257552 0.3269926258981318 0.020960318433773936
19307056 0.3270103674565938 0.020974592995411677
19356560 0.32712423946667113 0.02085249790548332
19406064 0.3269158498427076 0.021059838425392777
19455568 0.3267077930684228 0.021158023236723847
19505072 0.3270037651408619 0.021189617506731023
19554576 0.3267662289436198 0.021201795751592204
19604080 0.326875796985795 0.021324962167298733
19653584 0.3270875688773525 0.021360663133388875
19703088 0.3271407833367908 0.021732810646493964
19752592 0.32706131697559643 0.021437994385807166
19802096 0.32684793933152867 0.021701515449390623
19851600 0.32708731673346414 0.021429277628260596
19901104 0.3268286628255027 0.021541217669832326
19950608 0.32699964775608736 0.02213035363683757
20000112 0.32699125733190976 0.0216653032437052
20049616 0.32680387268434685 0.021483031690560497
20099120 0.3272286420125061 0.021846569077886756
20148624 0.3269704388960171 0.02191366749300992
20198128 0.32699803390545934 0.02209835499003947
20247632 0.3266111834310994 0.021983257070284496
