# HZ S RI R 50
50000 0.49507420975402844 -3.1451834292682175e-05
99504 0.49488716800871474 1.5911982526844095e-05
149008 0.4945457294496043 3.0451677506090804e-06
198512 0.49484047516855273 0.0004670661098544827
248016 0.4945961752842868 0.00017350187154038636
297520 0.49456780647363946 0.00028727416552937375
347024 0.4947389314039772 0.000296671142329415
396528 0.494544056851886 0.000324661704421089
446032 0.4944579980193352 0.00023047765011753558
495536 0.49475458909769193 0.0005188730793429029
545040 0.49455328171413054 0.00033622977107249693
594544 0.49473125980351673 0.0004017617477139916
644048 0.4946028880663363 0.0001601434123875657
693552 0.4945856834573319 0.00041209158645349754
743056 0.4945812255848589 0.0005144506181415201
792560 0.49450713781374966 0.0003183508202887889
842064 0.49465901544341623 0.00022796506145663842
891568 0.49448074757174787 0.0004312341127306375
941072 0.4946088474262366 0.0006568106711432558
990576 0.4946052435150632 0.0007567510459773734
1040080 0.4947657989701947 0.0004247470772455364
1089584 0.49452484840769456 0.00042095455554428
1139088 0.494362482582708 0.0006918219558995401
1188592 0.4947248910542462 0.0007200201762391865
1238096 0.4945935221318534 0.0007668526581118771
1287600 0.49449571843961 0.0008141452015242876
1337104 0.4945607744287133 0.0006867670484040797
1386608 0.4945766321349562 0.000703219091062335
1436112 0.4943926798862145 0.0006993398922499657
1485616 0.494728660171243 0.0006526692254836267
1535120 0.4945536852185618 0.0008777817403344482
1584624 0.49472846785495855 0.0009003679915377843
1634128 0.49445014730269143 0.00044698045717290265
1683632 0.49457099106526925 0.0005268072902723202
1733136 0.4945087242612908 0.001069077155219619
1782640 0.49464998119082093 0.0010051807032552679
1832144 0.4945916185754605 0.0008768196681285155
1881648 0.4946267694962641 0.0010661434441420344
1931152 0.4947887853856627 0.0008605163294800322
1980656 0.49468944266143655 0.0008195806645986417
2030160 0.49465491885501733 0.0010445066847146502
2079664 0.4948581024113501 0.0010752482238220546
2129168 0.4944693749552343 0.0008481515581825371
2178672 0.4948442534507443 0.0007448170201062026
2228176 0.4944332658328816 0.0007698374372082475
2277680 0.4948720145258732 0.0015101490348440408
2327184 0.49470399253641667 0.0006510537119443838
2376688 0.4946943137423315 0.0009919263696383932
2426192 0.49480015003781763 0.0011119290451520097
2475696 0.49430960439042515 0.00111547313436877
2525200 0.4948881180501173 0.0010028056850351686
2574704 0.4947402611295411 0.0012210570750755265
2624208 0.4950176522595665 0.0010019282331431743
2673712 0.4947774420998058 0.0012266204412473944
2723216 0.49483685931131205 0.001332151455410608
2772720 0.4946416083983806 0.0011706003024143478
2822224 0.49475314540010296 0.001243463112712127
2871728 0.49441016781496516 0.001240247032324204
2921232 0.49477056964946164 0.001541945172919952
2970736 0.49447414465573825 0.0010977583425289276
3020240 0.494610446460231 0.0013786446334122598
3069744 0.49447253347325776 0.0015582032723946426
3119248 0.49477718741994764 0.0015062802644842468
3168752 0.49459605700253745 0.0014397573340818365
3218256 0.49477432994262166 0.0012179476849901209
3267760 0.49476469953885327 0.0016755530876714283
3317264 0.49493535305225556 0.0013900875560893594
3366768 0.49473957076405145 0.0015513417714361577
3416272 0.494792314600656 0.0015672309943480058
3465776 0.49465177323068277 0.001585708397285894
3515280 0.494660597112897 0.0016212708785282484
3564784 0.4947847552513563 0.0014679276541660889
3614288 0.494808466741758 0.0014427602070328594
3663792 0.4948736741292777 0.0015336759620322787
3713296 0.4948657624056521 0.0018350423878306752
3762800 0.49465637504144583 0.0016700370811634669
3812304 0.4947852214904739 0.0018026930646672396
3861808 0.4945077417538538 0.0015002504590932893
3911312 0.494573581750987 0.0018739788927330597
3960816 0.4946059558082312 0.0022280259973650575
4010320 0.4945902821278502 0.0016860242976789058
4059824 0.494730068073094 0.0014671836428794304
4109328 0.49439090468733055 0.001712326748026177
4158832 0.4946019041155787 0.0022963470654487053
4208336 0.49472307167942164 0.0018186467256463498
4257840 0.49448132800853073 0.0021062618421524397
4307344 0.4946788542097854 0.00202677444016312
4356848 0.49451486349757595 0.001554739842116632
4406352 0.4946384092030034 0.0019137783273081934
4455856 0.4948959715743014 0.002674012534425597
4505360 0.4951158073774572 0.0017973934916852134
4554864 0.49483111870196433 0.0019202921244673976
4604368 0.49470045361036313 0.001940451317504637
4653872 0.49457848635009477 0.001861127091436579
4703376 0.49468700296493606 0.002044334424850749
4752880 0.4949343642766615 0.002431444780202491
4802384 0.4946617196942312 0.002345031673004328
4851888 0.49476828845336035 0.00215918783097333
4901392 0.4946338530567467 0.0022862786526507517
4950896 0.49449947212641715 0.001919290876467534
5000400 0.4944376854069712 0.0024786390497059827
5049904 0.4947727073212931 0.0020767464815385187
5099408 0.49456009543932716 0.0022353393785785446
5148912 0.49458573780120435 0.0023971190471939146
5198416 0.49510973066064845 0.0024088617669241097
5247920 0.49504969844954605 0.002032962098244801
5297424 0.4947792228646304 0.002221764652594923
5346928 0.49493148282186494 0.0021661555979627127
5396432 0.4948680526041126 0.0027198510404899817
5445936 0.4947636698947074 0.002554337150361416
5495440 0.49497378867941216 0.002664709504695186
5544944 0.4950168016919231 0.002330729356398609
5594448 0.4948549922920026 0.0024932325470007205
5643952 0.494863209115179 0.0024923920292655635
5693456 0.49486558434870265 0.002497761498431061
5742960 0.49473948137146473 0.002431230998666722
5792464 0.4949203019000015 0.0024431957541953247
5841968 0.49466664263134397 0.0021860941488987006
5891472 0.4945598190502311 0.002553216285500558
5940976 0.4944284453626074 0.002486771170494655
5990480 0.49479025506676266 0.0023759042715604762
6039984 0.49491685064282637 0.0027921836091039038
6089488 0.4951117207883387 0.0027842702328599125
6138992 0.4949522310930291 0.0030331436703047673
6188496 0.49475133215328776 0.002558471716522594
6238000 0.4948520479759196 0.0025478003264640696
6287504 0.4946770126813554 0.0028362168846063677
6337008 0.49468393442003955 0.0028671167416110636
6386512 0.4950301188173426 0.0028608471225220135
6436016 0.4949891003280596 0.002693951887391568
6485520 0.49498855428638255 0.0028590742203971078
6535024 0.49519064684900077 0.00279109226090951
6584528 0.4948306276866348 0.0028609852975570284
6634032 0.49477753819366593 0.0027188697259113823
6683536 0.49484039929024287 0.002867532798714376
6733040 0.4946961931182284 0.002939256415905243
6782544 0.49488712011974095 0.003251882047957768
6832048 0.49501491666975866 0.00294062220310064
6881552 0.4951364216851779 0.0028344466920046762
6931056 0.4947555984459989 0.00304123440053381
6980560 0.4948692497865351 0.0031552144959684685
7030064 0.4948369218219474 0.003012913105946909
7079568 0.49491193133324374 0.002924151271212745
7129072 0.49483693090245784 0.0030467055457713286
7178576 0.49489586795868135 0.003109127215873167
7228080 0.49500945212290204 0.0029703342217258554
7277584 0.49481179124186914 0.0032062404050276147
7327088 0.4947622163973306 0.003326262714170152
7376592 0.4948903186358722 0.0031766244208793486
7426096 0.49515476277143733 0.00312964331860913
7475600 0.494866873148925 0.00324501580396543
7525104 0.4948949464113979 0.0030608491963286942
7574608 0.4948177860150481 0.003488214795916394
7624112 0.49496310991477216 0.0031852836113297695
7673616 0.49502199804845076 0.0034407347937933964
7723120 0.4950966918500973 0.003350660123031717
7772624 0.4947556923182369 0.0035452785896134716
7822128 0.4947240914107736 0.0032913356844114392
7871632 0.4951578101824196 0.003413751719296535
7921136 0.49482693045077303 0.003376073482149635
7970640 0.4947521365334864 0.0038978081099294002
8020144 0.4950055364385518 0.0034250697385114124
8069648 0.49498359672182307 0.003579381940112478
8119152 0.4948535884276429 0.0033623889574371612
8168656 0.4952375963729542 0.0035724564878745354
8218160 0.4945468133520593 0.0033768120728952748
8267664 0.49478170381524433 0.003799914891493193
8317168 0.4948454531460513 0.0035716715875202657
8366672 0.494598730682426 0.003533897630756196
8416176 0.49485454253168665 0.003686095956605536
8465680 0.4953965320795406 0.0035461915788162993
8515184 0.4949804179714431 0.0036397718857523447
8564688 0.49485366902195516 0.0037715577904887786
8614192 0.49471025764978327 0.003517501469798402
8663696 0.4946657613623529 0.003757600948440159
8713200 0.49505705803937955 0.003489461569152614
8762704 0.49456102312493233 0.0035320418771956994
8812208 0.4945293344605692 0.0039938436233567685
8861712 0.49485254489509284 0.003903468773079961
8911216 0.49512786331056097 0.0038838695601697633
8960720 0.49494346807528705 0.003786881990252942
9010224 0.49459346786481095 0.003672275444951467
9059728 0.494818107752262 0.0035960954554408175
9109232 0.49493750532711683 0.003886928018123682
9158736 0.4949794138597876 0.0037958572459132916
9208240 0.4949509910073687 0.003920044653384806
9257744 0.4947414611494244 0.0039686190279012296
9307248 0.4948670396252247 0.0037406878477857443
9356752 0.495131368705635 0.004086195198311012
9406256 0.4946736592840523 0.003780630125709985
9455760 0.49503379069376047 0.004064467494216439
9505264 0.494888384904357 0.003971443634238298
9554768 0.49501816094239576 0.0039882849215716375
9604272 0.4951888988356263 0.004185510267098998
9653776 0.49507902785620533 0.004279745283287848
9703280 0.4946966147580178 0.004104928023044895
9752784 0.4948485518744225 0.004359158899852116
9802288 0.4952026278180935 0.003969178243499285
9851792 0.49487885052700104 0.0042116401739129014
9901296 0.4946410589544156 0.00435230519959734
9950800 0.4946823914325169 0.004221945567391832
10000304 0.4948959638774074 0.0046782589717195185
10049808 0.49507621080923836 0.003933631233731128
10099312 0.4951161071862116 0.004218243502039707
10148816 0.49477648627808885 0.004158677441375746
10198320 0.49485582082376345 0.004372554504352095
10247824 0.4952132074150354 0.004665818055541863
10297328 0.49524383848591796 0.004313736126665893
10346832 0.4949132727670243 0.0043419725920279244
10396336 0.49502687504282417 0.004575596064548452
10445840 0.4950776148127297 0.004631468126490924
10495344 0.4949283993575479 0.004391376948642482
10544848 0.49493999117515647 0.004629250632770319
10594352 0.49491236501949154 0.004311931191311647
10643856 0.49487549359866406 0.004753159153714524
10693360 0.4949665304576966 0.004422957510010224
10742864 0.49516757624525576 0.004693304171262205
10792368 0.49512166203175867 0.004288159153753937
10841872 0.495000631529495 0.004305085581634709
10891376 0.4949669791398225 0.004710941520477858
10940880 0.4947749845607131 0.004651846491441424
10990384 0.49484638361324 0.004707708005845917
11039888 0.49519866257924194 0.0049926027193754555
11089392 0.4948969962298699 0.0046353208328605774
11138896 0.49504860192450706 0.004918086471533975
11188400 0.49503855182203854 0.0048210547690739
11237904 0.4947909684114217 0.004794602193014654
11287408 0.4949881625980882 0.0046695890570115665
11336912 0.4950670846981006 0.004943528478873865
11386416 0.49482650747575274 0.004709418135262949
11435920 0.495251975605337 0.00490587198866169
11485424 0.49520861585720477 0.0050534175766399365
11534928 0.49484782821691076 0.004896894799133115
11584432 0.4949522078873545 0.005224923232719378
11633936 0.49506305502200687 0.0049074209944276114
11683440 0.4949454672920134 0.0048837309058312245
11732944 0.49513518737169504 0.005368904002373033
11782448 0.49494223806937365 0.00520618777456174
11831952 0.4950925601167575 0.005181016656699934
11881456 0.49511564524981183 0.005067920160417259
11930960 0.4947931395194952 0.005156666907458548
11980464 0.49483797274017916 0.005169010261878498
12029968 0.4950119941033016 0.005037882206943065
12079472 0.49513061568464733 0.005043676086886133
12128976 0.49522075973146756 0.00506593365863027
12178480 0.49503621988922564 0.005090938334082614
12227984 0.49489810780046617 0.004919892952398231
12277488 0.4951170396930107 0.005489202792586503
12326992 0.4952349309606877 0.0051739732698275216
12376496 0.4949226480904388 0.0052271326139027114
12426000 0.49490986671368953 0.0054756327435423165
12475504 0.49496162703908364 0.004862674762288406
12525008 0.4949353246836874 0.005186487307848639
12574512 0.49518333378524654 0.005260243902157288
12624016 0.4949434784972989 0.005561302874396799
12673520 0.4946863220906098 0.005551272664253668
12723024 0.49525456903863674 0.005639904218663549
12772528 0.4949236220639533 0.005261535971066492
12822032 0.4952570979093764 0.005592098101615077
12871536 0.49519688929218925 0.005420409843755445
12921040 0.49503321459711114 0.005483944412669901
12970544 0.4952303161884505 0.005414701313202032
13020048 0.4950995254882525 0.005328331950961557
13069552 0.4947723579927002 0.005502894823289138
13119056 0.4947606674810106 0.005566663466846214
13168560 0.49507358798462536 0.005741668875160922
13218064 0.4950645146071632 0.00552849074952447
13267568 0.4947911154652592 0.005855307469654696
13317072 0.4950305728322513 0.005575199524186129
13366576 0.49523090690375 0.005586673545502774
13416080 0.4953360726749506 0.005787288553966392
13465584 0.4950125618335574 0.005553801779877513
13515088 0.49509037691548435 0.005319687949536444
13564592 0.4949287515832472 0.005454177095564536
13614096 0.49495657481946814 0.005799129866946433
13663600 0.495173578917329 0.005772773564780546
13713104 0.4952114464562299 0.005682971940497343
13762608 0.49496097623094376 0.0058412774346090586
13812112 0.4950352354628839 0.005564945343446839
13861616 0.49491582880493823 0.00580986818378009
13911120 0.4950157499956793 0.0059648532848472265
13960624 0.49530581962844406 0.006057727564732519
14010128 0.4950691204596045 0.005413403259806074
14059632 0.4950412580511238 0.006092791013779831
14109136 0.4952963139316766 0.0060227450740495654
14158640 0.4950175989238528 0.006063890426199134
14208144 0.4952479500862841 0.005958933367319479
14257648 0.4950067921940029 0.005899612675974829
14307152 0.4950690416730298 0.005888867862306042
14356656 0.4948927165842695 0.005964842766833545
14406160 0.49505614436375983 0.0059109507892747895
14455664 0.4951682124050619 0.00621127996504741
14505168 0.4950267187846917 0.006401430813846251
14554672 0.4952595417593782 0.0061000476971562485
14604176 0.49530596627007795 0.005928197933549642
14653680 0.4950772450717684 0.006290329904864065
14703184 0.49529082044354866 0.006263079415776232
14752688 0.4953583924689206 0.006190943781363189
14802192 0.49515224235106126 0.006095233428001206
14851696 0.4950149913907023 0.006321960263499986
14901200 0.49550186214225556 0.006250493820594755
14950704 0.49501564644874707 0.006314052378195998
15000208 0.4948376166772524 0.006275034902054443
15049712 0.4950793762791018 0.0062959492814945155
15099216 0.4949470846912714 0.0064274205296658135
15148720 0.4950384331613378 0.00647545603622324
15198224 0.49514029765056106 0.006284831882841403
15247728 0.49478028765238996 0.006434024217005949
15297232 0.4951298365269425 0.006378663178673423
15346736 0.49526017528708494 0.0067248489658361475
15396240 0.49522040502466824 0.006235796299734987
15445744 0.49538025146265097 0.006607950449305366
15495248 0.4953067566312257 0.006540216905531852
15544752 0.4951207990525477 0.006611044890893356
15594256 0.4950129946945711 0.006745351661580362
15643760 0.4951852438399843 0.006772351955299956
15693264 0.49516283409518386 0.0062553219723887835
15742768 0.4951757157983992 0.0065677467996676266
15792272 0.4951097524076129 0.0069370497799523465
15841776 0.4952869144260445 0.006929139558491691
15891280 0.495256497831472 0.006594906160869831
15940784 0.4952768596346759 0.006716861037730659
15990288 0.495080667986243 0.0063904528532985685
16039792 0.49525157190375746 0.006802424679414475
16089296 0.49555115845727826 0.006668462359234909
16138800 0.495011086225122 0.0067371134366587095
16188304 0.4947721996467603 0.0069478432860454525
16237808 0.49518240074114994 0.007111267699848619
16287312 0.49518820092977844 0.006669400511216469
16336816 0.4950709740517497 0.006828688075282238
16386320 0.4956342426606118 0.007006295895418224
16435824 0.49489102031823884 0.006893765911032158
16485328 0.49509497886035625 0.006852540371793594
16534832 0.4952993759524075 0.00703738184177662
16584336 0.49508779400205455 0.007181812768666236
16633840 0.49504549457195207 0.007462543180469815
16683344 0.49478488725092046 0.006776258162300778
16732848 0.4947157934702311 0.0069679419702103
16782352 0.49496679409279526 0.006772954081584472
16831856 0.49512813252723126 0.007226813483121023
16881360 0.49507379384870115 0.007131973466744081
16930864 0.49511660724540785 0.006821116264595508
16980368 0.49558205724576365 0.007110349607328665
17029872 0.49541235667566497 0.007532690430212077
17079376 0.4954469828950934 0.007112122750522469
17128880 0.49535203640417436 0.007433601689090723
17178384 0.4954708970465603 0.007282747356371289
17227888 0.49521520832684335 0.007191079839026464
17277392 0.4952642928048049 0.007215024218313697
17326896 0.49516819260615896 0.007400942948151981
17376400 0.49510086186102026 0.006865906898318286
17425904 0.4953503522631367 0.007412928250866005
17475408 0.49524050077338605 0.007384565750030291
17524912 0.4950106600269974 0.007275022427866286
17574416 0.4951525199430496 0.007343169558553237
17623920 0.4952050164857825 0.007658940277208205
17673424 0.49543016580072774 0.007650148675234881
17722928 0.49521375513433274 0.00752363367352576
17772432 0.4953265229345122 0.00760815176625384
17821936 0.495340071245264 0.007395895480167219
17871440 0.49553092894433715 0.007738579273552253
17920944 0.4953918122749591 0.007624071147225805
17970448 0.4952219664648702 0.0077214230269695774
18019952 0.49505205611779274 0.007673174643157936
18069456 0.4951855748137977 0.007896444748505151
18118960 0.49512702734797376 0.007617609399620074
18168464 0.4954555098067421 0.007663659828394097
18217968 0.4956181556170424 0.007657952796503178
18267472 0.4954609998248591 0.007918909684141438
18316976 0.49539165748560615 0.007448392991601088
18366480 0.4949011379283228 0.007577683565072711
18415984 0.4955395660995076 0.00772955625343567
18465488 0.4953085899430624 0.007634728497602499
18514992 0.49514936849876656 0.008004023055532756
18564496 0.49529610458332496 0.007706512076420358
18614000 0.4951750591154665 0.007892356497729238
18663504 0.49582374926262573 0.0077944778657313306
18713008 0.4951842384331424 0.007664773045289449
18762512 0.49524744856405295 0.008025337920088868
18812016 0.49539790934812244 0.007793464881440592
18861520 0.4952817350361609 0.008058773237236824
18911024 0.49530668160642455 0.007654789828161146
18960528 0.49530975758216195 0.007988123156176186
19010032 0.49530819584322106 0.008126030783823169
19059536 0.495575012151676 0.007830367371748165
19109040 0.4951579332346737 0.00787193067710339
19158544 0.4949685776161815 0.008492931893735997
19208048 0.4955158016420944 0.00841219076699169
19257552 0.4952608691045245 0.007923255191251704
19307056 0.4953764899450627 0.008004511655424195
19356560 0.49556448148557763 0.008374984040127395
19406064 0.4953905974586836 0.00795788739561482
19455568 0.4951835345042495 0.00805191069663621
19505072 0.4954118209621601 0.008040676727479493
19554576 0.49506067169631623 0.008086685762113844
19604080 0.4954430668229381 0.008362164171747118
19653584 0.49539729287876955 0.008307589276988216
19703088 0.49542537833862627 0.008390657417924802
19752592 0.49543863591514564 0.008162590342806654
19802096 0.49509560088871696 0.00848841663192332
19851600 0.4950439695269627 0.008058246282354286
19901104 0.495342181752119 0.008372039807425452
19950608 0.49522677570802676 0.008753242772851107
20000112 0.4955063710018158 0.008409557600777686
20049616 0.49566062412403444 0.008194069204164357
20099120 0.49554763077249103 0.00841127316040533
