# HZ S RI R 50
50000 0.7323409544315947 0.00023445627886600938
99504 0.7318425087491436 -1.325004484888035e-06
149008 0.7319163920832581 -0.00020645041263895862
198512 0.73224681467008 0.000150381686587108
248016 0.7318588891138711 0.0002820308848572632
297520 0.7318015790847283 9.560078650094706e-05
347024 0.7320663426416864 -0.00026497955372957937
396528 0.7321471654751793 0.00016802093661936272
446032 0.7317674549302063 -0.00039026325489196557
495536 0.731966813268883 0.0001343542894356093
545040 0.7320765040741596 7.090342866987304e-05
594544 0.7321924410122462 -0.0002209750382055523
644048 0.7320827774252132 0.00013263131259366493
693552 0.7316882382020176 1.284151582065328e-05
743056 0.7321678613960357 -0.00012511955694037303
792560 0.7318498291764496 -0.00015847145728800088
842064 0.7320323620395051 -0.0002224074127355618
891568 0.7316191758433049 -0.00011137750295184157
941072 0.7319849913103827 -8.84402721758177e-05
990576 0.731639739308402 3.142677137482071e-05
1040080 0.7318602042372849 0.00015937474310711252
1089584 0.7321356642492044 -0.00010370873038964235
1139088 0.7320062326584348 -0.00020750578760156665
1188592 0.7319903444846305 1.5971020442016406e-05
1238096 0.7320956204235511 -1.0048270538697541e-05
1287600 0.7319452593292634 -0.0004628821956170149
1337104 0.7317267818898794 -0.00025857743180942363
1386608 0.7319331794485822 -0.00028198543774855724
1436112 0.7318572963083447 -0.00021548982882664745
1485616 0.7319931885881538 2.5262380086860046e-05
1535120 0.7319271513552915 -0.0002896825283776151
1584624 0.731898957292306 -1.0003458913131124e-05
1634128 0.7320391969349996 6.450345136229257e-06
1683632 0.7320495387817644 -0.00039193358487292913
1733136 0.7317562904802847 -0.0002986193210223401
1782640 0.7320108540823748 -1.8618981027720224e-05
1832144 0.7318712208439916 -7.015400422869977e-05
1881648 0.7322438923529487 -0.0003086323999367072
1931152 0.7320725808682026 -0.0006526044627672902
1980656 0.7318748388864267 -0.0005517391676397132
2030160 0.732189949615674 0.0001429391646665491
2079664 0.7318769781679532 -2.2461824765645585e-05
2129168 0.7319463429225243 -0.00029480427448911863
2178672 0.7319417022365712 -0.0003169898798628496
2228176 0.7319836862888509 -0.0006697222279906804
2277680 0.7319727756499327 -0.0002852419181604999
2327184 0.7318533389073293 -0.00038119018992248437
2376688 0.7317453270902345 2.872736075880135e-06
2426192 0.7323869652458435 -0.0005876278564744742
2475696 0.7316784376583393 -0.0006876744792245602
2525200 0.732141114802482 -0.00033002595221666756
2574704 0.7319746358492347 -0.00037080009247352343
2624208 0.7320584551303 -0.00045456916155906587
2673712 0.7322058147513444 -0.0003683483279651797
2723216 0.7318718458839955 -0.0006230243728087468
2772720 0.7319407970816947 -0.0004254658752429181
2822224 0.7320674582270326 -0.00034941940138465615
2871728 0.731858059222326 -0.0006436051125628571
2921232 0.7321138613818966 -0.0005595129075765251
2970736 0.7320475759104867 -0.0004690926336633971
3020240 0.7320342017548276 -0.0005491343750413689
3069744 0.7319536980376206 -0.0005888317561677547
3119248 0.7318516992718659 -0.0005314888489092029
3168752 0.7322787596950772 -0.00044639624121671685
3218256 0.7318202511388058 -0.0004736181310591297
3267760 0.7320725275618097 -0.00040301577814642897
3317264 0.7320823095918536 -0.0005477404703226639
3366768 0.7320467601998537 -0.0005990487675090762
3416272 0.7321794832120766 -0.0006506873978582771
3465776 0.7322236030146902 -0.00030148261009051424
3515280 0.7320257761288533 -0.0010126857393390237
3564784 0.7317577737510657 -0.0005313644590708409
3614288 0.7322142566793465 -0.0005031952506512947
3663792 0.7324157284214283 -0.0007880194814973192
3713296 0.7320078645658149 -0.00048161121481403847
3762800 0.7319070178276219 -0.0009124489037551797
3812304 0.7321394428175779 -0.00041449017700081136
3861808 0.7320162151861938 -0.0007655906636198736
3911312 0.7320937492594242 -0.0005539495871724039
3960816 0.731754902099125 -0.0005080014058813604
4010320 0.732189403623027 -0.0005721894201831659
4059824 0.7318897190185971 -0.0008078126152495184
4109328 0.731981955762012 -0.0008037514533192816
4158832 0.7319423683023707 -0.0006256111884222167
4208336 0.7319897474788059 -0.0008985477718418058
4257840 0.7318129193758557 -0.0008138547754102498
4307344 0.7319988454793178 -0.0006981279216563641
4356848 0.7318175841802381 -0.0008527034178647049
4406352 0.731843899842386 -0.000525442972801447
4455856 0.7321322781061164 -0.0005907494125922296
4505360 0.7322562024501271 -0.0007684551692557902
4554864 0.731929114960503 -0.0008261723894178287
4604368 0.7319474133564814 -0.0007892935442733831
4653872 0.7321961779052408 -0.0007323569151862056
4703376 0.7318878462777805 -0.0008028896080424297
4752880 0.7321999443640209 -0.0006807292174998492
4802384 0.731803751082434 -0.0008498933120329217
4851888 0.7319607401279273 -0.0006107294065939495
4901392 0.7321378940705412 -0.0007840330863016896
4950896 0.7319242219886247 -0.0008031064260807054
5000400 0.7318821093796991 -0.000803523341899454
5049904 0.7316845979278235 -0.0009905556009301008
5099408 0.7320720061156815 -0.0005908431604074167
5148912 0.7314819694634568 -0.0005662343671280352
5198416 0.7322201563454608 -0.0006236533298583787
5247920 0.7321038789679934 -0.0012591824152222563
5297424 0.7319945242980662 -0.0007973601663193345
5346928 0.7318952367263105 -0.0010919822535557266
5396432 0.7319930147718793 -0.0008599891496196639
5445936 0.7321007386045344 -0.0006314573862227304
5495440 0.7321021041797094 -0.0003935908733858974
5544944 0.732219946456173 -0.0008456529395635038
5594448 0.7321749644157932 -0.0009924746307704766
5643952 0.7321179474867545 -0.001133696488916311
5693456 0.7320305454128831 -0.0011407124258516939
5742960 0.7320668170776244 -0.0010305626809888617
5792464 0.732112179372777 -0.0008444316558445993
5841968 0.7319752213400569 -0.0010499876981484595
5891472 0.731874785509713 -0.0010265609720848685
5940976 0.7319112455586207 -0.001182006341320195
5990480 0.7320906534935384 -0.0008971452232157818
6039984 0.7320886182629128 -0.0007250757960029074
6089488 0.7321826226211899 -0.0009333553703250732
6138992 0.7321628206790348 -0.0008458335493360359
6188496 0.732241218331813 -0.001032436741757599
6238000 0.7322026691055188 -0.0010683647918923807
6287504 0.7318864591456518 -0.0011836821883604767
6337008 0.7321256563383656 -0.0008825312523606834
6386512 0.7320991999003442 -0.0008040380562981248
6436016 0.7325486845059949 -0.001092454496635323
6485520 0.732208622391151 -0.0009581621419716335
6535024 0.7320365702837779 -0.0010414326642868752
6584528 0.7321108358449999 -0.0010707161321872939
6634032 0.7317184070563613 -0.0013484471224710667
6683536 0.7320796517910522 -0.0012942796044414858
6733040 0.7317978811931607 -0.0013856139082768313
6782544 0.732049213182439 -0.0007280096409438901
6832048 0.7321643829745265 -0.0008099776460543577
6881552 0.7321264179729947 -0.0012074175784870804
6931056 0.7322844695110873 -0.0013531622810779359
6980560 0.7322094308306862 -0.0012242328944536507
7030064 0.7318725793805261 -0.0013556332476861248
7079568 0.7317658801175623 -0.0011365051936560074
7129072 0.7322817057625051 -0.001057871088879878
7178576 0.7321396509787108 -0.0012456132875658778
7228080 0.7321789177500406 -0.0014812151423482737
7277584 0.7318755620485743 -0.0014327463015111977
7327088 0.7319108125551965 -0.0009450778440166049
7376592 0.732169344865439 -0.0010513140431286329
7426096 0.7320538816967308 -0.0014084291392158312
7475600 0.7319020348715638 -0.0012581057518226085
7525104 0.7321711001868967 -0.0015637431124363042
7574608 0.731981432415295 -0.0013611573228423492
7624112 0.7317130168489083 -0.0012562576554036333
7673616 0.7321506271131909 -0.0011879569377118
7723120 0.7321822321205465 -0.0012223569642584133
7772624 0.7320979477211206 -0.001399392814219967
7822128 0.7319890295017343 -0.0016278565089068405
7871632 0.7319965851876525 -0.0018626658520778524
7921136 0.732233350165059 -0.0010701884458255905
7970640 0.7321059685749718 -0.0013664272410454576
8020144 0.7319899842308331 -0.0015575691148894343
8069648 0.7319243850639904 -0.0013590409650391056
8119152 0.7324288969151427 -0.0015384920887202523
8168656 0.7320707310323061 -0.0011657957766188988
8218160 0.7318032000084705 -0.001458610159531164
8267664 0.7319515413447266 -0.001430939803337775
8317168 0.7320408888021889 -0.001499696860791161
8366672 0.7316641197463766 -0.0014757652156405891
8416176 0.7320167374099933 -0.0010901545976240107
8465680 0.732379585426954 -0.0016344561112295241
8515184 0.7323028532804513 -0.0016074430875835715
8564688 0.7319963217139827 -0.001806886270101992
8614192 0.7320624302195987 -0.0015568534890870855
8663696 0.7318752967476476 -0.001415826148451765
8713200 0.7321956211030821 -0.0016969730313039185
8762704 0.7319726637794348 -0.0018485289308271837
8812208 0.7319533143124913 -0.0017079365741578356
8861712 0.7317886013167825 -0.0015279556900504275
8911216 0.7320130556576541 -0.0016947847541967113
8960720 0.7320311264091421 -0.0019862614711102897
9010224 0.7317105603720747 -0.0020075607732821135
9059728 0.7320025627709631 -0.0019891863049605815
9109232 0.7318043294710691 -0.001248023002331327
9158736 0.7320009303129584 -0.0015623393639087118
9208240 0.7320716536925262 -0.0015487581665054825
9257744 0.7320114205251469 -0.001510922309038621
9307248 0.7319398902971164 -0.0016660869633842083
9356752 0.7318973405442027 -0.0013730631144154971
9406256 0.7319351588794609 -0.0015059865931929203
9455760 0.7319721415584303 -0.0017702236860768186
9505264 0.7321337722243274 -0.0016045345787005839
9554768 0.732146248789693 -0.0018755157091684032
9604272 0.7318683774868178 -0.0014970759616829438
9653776 0.7320196408619581 -0.0016662071475247872
9703280 0.731896378686197 -0.001844821017129443
9752784 0.7320934829424246 -0.001546429486209531
9802288 0.7322885856400296 -0.0017420722138172995
9851792 0.7322506494329802 -0.001858005136375813
9901296 0.7320206361767476 -0.001607737215130982
9950800 0.7318999238070888 -0.0017660101546920317
10000304 0.7320452546426741 -0.001450201668532255
10049808 0.7317927641684716 -0.001979899304247246
10099312 0.7321311502890807 -0.001822565252430871
10148816 0.7321072741941641 -0.001843524969987419
10198320 0.7321058293107675 -0.0017957792920780086
10247824 0.7321867194627375 -0.0015580140649709181
10297328 0.732042892551159 -0.0016605737766405412
10346832 0.7321404482728988 -0.0017793473420237716
10396336 0.7320086500375657 -0.0017811664168673768
10445840 0.7320237733710706 -0.0016985444604424623
10495344 0.7321470832780129 -0.0019166959202591607
10544848 0.7319251688926139 -0.0016303589403670496
10594352 0.7318552939152814 -0.0021394752499342257
10643856 0.7322674361075157 -0.0017822088903594188
10693360 0.7320371582621188 -0.001966872646574668
10742864 0.731934012104009 -0.001862477231973915
10792368 0.7323225249654037 -0.0018404175967896219
10841872 0.7321802708863857 -0.0020741235629560093
10891376 0.7324132405857836 -0.002024504413842639
10940880 0.7319161337650542 -0.0020508958268357445
10990384 0.7323568194761066 -0.0019068807958721836
11039888 0.7322268067357602 -0.0018755709212385917
11089392 0.7316291337857144 -0.001979926380058171
11138896 0.7321765920795159 -0.0019258274568761315
11188400 0.7323376129633716 -0.0018314789107865804
11237904 0.7319918805742203 -0.0019966159744143437
11287408 0.7320367645073148 -0.002131887370162374
11336912 0.7320284834806312 -0.0019157044948583922
11386416 0.7319763413308914 -0.002135205140024612
11435920 0.7323243353590224 -0.0023140130123110348
11485424 0.732410375556672 -0.002165031778026812
11534928 0.7319801407423396 -0.001878086660638427
11584432 0.7317990809549514 -0.001836909190521208
11633936 0.7321244282219108 -0.0018997666902323366
11683440 0.7321986216358697 -0.0018510336338204406
11732944 0.7321938625977956 -0.0017178058936032328
11782448 0.7319757127497026 -0.0016095797680738602
11831952 0.7319395386617278 -0.0018081505098534747
11881456 0.7321862802557432 -0.0021542254548273755
11930960 0.732308856785207 -0.0019240837045370652
11980464 0.7321672404409605 -0.0022854095350284776
12029968 0.7321754959061108 -0.002363373711458467
12079472 0.7319343812932662 -0.002212072617063318
12128976 0.7320343020783074 -0.0021521997088113846
12178480 0.7317171315707988 -0.0021683004953231993
12227984 0.7318179830184062 -0.002190897697033473
12277488 0.731838041975362 -0.0019591663941973653
12326992 0.7323427732533514 -0.002041869902503035
12376496 0.7323378921291241 -0.0022691879618104162
12426000 0.7317829724847434 -0.0024894722683150043
12475504 0.7320019263934356 -0.002255920319652698
12525008 0.7320824908468432 -0.0024534502148792665
12574512 0.7320647039480527 -0.0023268340872678807
12624016 0.731996373677198 -0.0021984701323041313
12673520 0.7321066017589669 -0.0021771441718037945
12723024 0.7319562614374259 -0.002298495041528305
12772528 0.7318351807428828 -0.0021310268654981504
12822032 0.7321962835979934 -0.0019189008549774312
12871536 0.7320521458428431 -0.002323162764391374
12921040 0.7321276322212943 -0.0023785761466842918
12970544 0.7324983117452852 -0.0022179447273479496
13020048 0.7321728701198347 -0.0023094433547166124
13069552 0.7320175106464333 -0.002494149229486151
13119056 0.732044633528569 -0.002341577230375508
13168560 0.732067712822203 -0.002425008342666188
13218064 0.7319890507824011 -0.0024173763926599754
13267568 0.7319125564362342 -0.0020423762167990356
13317072 0.7321117028735367 -0.002276463728847455
13366576 0.732153897515263 -0.0023908217950675986
13416080 0.7319911892063378 -0.0023592698235669037
13465584 0.7322603935725598 -0.00244326192235608
13515088 0.732176014071408 -0.0025251897994715954
13564592 0.7322845801077525 -0.0022989611864169344
13614096 0.7320892156839444 -0.0024393119165174665
13663600 0.7321329652979446 -0.002582888358669237
13713104 0.732074619685612 -0.0025699314550075812
13762608 0.7320909120200381 -0.0022727468326356757
13812112 0.7320515336159122 -0.0024643801049203024
13861616 0.7321139665875327 -0.00242112768179448
13911120 0.7321327291244594 -0.0024605707513140197
13960624 0.7319555785697224 -0.002379430949039696
14010128 0.731913126524398 -0.0024570697439452397
14059632 0.7320642686312918 -0.002274303451870226
14109136 0.7322365774509143 -0.002657828762994985
14158640 0.7318283032186182 -0.0025408843830628668
14208144 0.7320266972010645 -0.002732186149836174
14257648 0.7318108286682545 -0.002813704388823326
14307152 0.7321022320072984 -0.0024424115962663824
14356656 0.7319753623622639 -0.0023256720266164885
14406160 0.7323266963326728 -0.0027910723113527486
14455664 0.731966840320915 -0.002560845280277517
14505168 0.7321041790179824 -0.0024375370855907186
14554672 0.7321225750822513 -0.002912173842661844
14604176 0.7320215793981075 -0.0026944499545980332
14653680 0.7323656698689837 -0.002581217253381215
14703184 0.7319107502897519 -0.0025329515811853714
14752688 0.7321381626893672 -0.0025315035681399375
14802192 0.7322984434655471 -0.0028018701014631523
14851696 0.7318048531806381 -0.0027578419288678893
14901200 0.7324795050232816 -0.0026822038792767224
14950704 0.732023438647841 -0.0028509404143271587
15000208 0.7320130966541001 -0.0027506336841824873
15049712 0.732490446161622 -0.002369959168847728
15099216 0.7319707668052625 -0.0028121448318057457
15148720 0.731926063459977 -0.0027277095491839353
15198224 0.7319512620084241 -0.00282167432772236
15247728 0.7319925692531885 -0.0027763268278918948
15297232 0.7323725443477834 -0.002737486087269656
15346736 0.7322480527414886 -0.002603950516239477
15396240 0.7320666399733483 -0.002734033876128659
15445744 0.7321957463450689 -0.002585709101109911
15495248 0.7319697074332219 -0.0031078895337731285
15544752 0.7319263509757463 -0.0028945832900097823
15594256 0.7319543408678023 -0.0028525879039661512
15643760 0.7322033484978192 -0.002729111421620411
15693264 0.7319880604181367 -0.0029053288561079606
15742768 0.7321792339347504 -0.0027049609014348414
15792272 0.732231118211627 -0.00235849200656931
15841776 0.7323992296428146 -0.0027613950316929432
15891280 0.7323698573795921 -0.0031101107433759165
15940784 0.7319985177332193 -0.0027468941389574763
15990288 0.7318162490217467 -0.0031252992128768206
16039792 0.7322422037599797 -0.0025385372323506986
16089296 0.7321604525778312 -0.0029355415171120453
16138800 0.7322417386890495 -0.003069090362398491
16188304 0.7319950103016795 -0.002866031834766539
16237808 0.7320959413926439 -0.0028941508440822375
16287312 0.7322017651376292 -0.0028491341976586352
16336816 0.7319623866273417 -0.002792011500497174
16386320 0.7325933316484158 -0.0028900996054868327
16435824 0.7323721590845594 -0.0028459178291806333
16485328 0.7321635554440281 -0.0029063289810484292
16534832 0.7323092362674748 -0.0028394129519323766
16584336 0.7322390222272016 -0.0031079266929578573
16633840 0.732107242320953 -0.002479859814919866
16683344 0.7321745614705691 -0.0031526512812923586
16732848 0.731887568032481 -0.0027723877358743166
16782352 0.731832165046006 -0.003364079577453627
16831856 0.7320309367350073 -0.003032679499282219
16881360 0.7321241845014678 -0.0031084147958345657
16930864 0.7319497716686011 -0.00313058175727795
16980368 0.7323145791100826 -0.003042156500029928
17029872 0.7321238072580674 -0.002980267757665711
17079376 0.7321605601095286 -0.0029050575144338453
17128880 0.7322002042681381 -0.002990239996169525
17178384 0.7321915025097876 -0.0033387795050717614
17227888 0.7320205084198452 -0.00318114260603776
17277392 0.732485679476686 -0.003220302131271209
17326896 0.7321695583721859 -0.003059590401358745
17376400 0.7319688056170253 -0.0033073354402878073
17425904 0.7321080080131459 -0.003096921169884927
17475408 0.7321456275503723 -0.0033041509447593294
17524912 0.732093953326113 -0.003479058224189763
17574416 0.7320246991841666 -0.0032434850321763657
17623920 0.7322364373331586 -0.003266755270538638
17673424 0.7321212926443688 -0.003016295347257734
17722928 0.7321871847397557 -0.003170533007024514
17772432 0.7321559588601776 -0.003151006350054969
17821936 0.7319159352974212 -0.0032331168592835647
17871440 0.7321905689366923 -0.0029917227243871796
17920944 0.7322281429815554 -0.0030408001980025638
17970448 0.7319714477614774 -0.0030523863390707873
18019952 0.7320804846380959 -0.0032404644686614458
18069456 0.7319373709311686 -0.003196805784933065
18118960 0.7320709950910926 -0.003199975108131049
18168464 0.7323036443924911 -0.0031166314717778493
18217968 0.7320911079392584 -0.0035172095669553593
18267472 0.7324009321875102 -0.002702940149167822
18316976 0.7322348300520671 -0.003404668139991241
18366480 0.7320171482344737 -0.0032142922910715637
18415984 0.732237260643435 -0.0031447478444674684
18465488 0.7322279949247993 -0.003249710028523746
18514992 0.7324145416618367 -0.003495371295401968
18564496 0.7321634650966988 -0.003354305976859765
18614000 0.7318762905574161 -0.0032314678034750344
18663504 0.7322355170362984 -0.0035022553050330766
18713008 0.7320500985484729 -0.003153290716860744
18762512 0.7320436823712193 -0.003435723754473147
18812016 0.7323145842117523 -0.003375217878143927
18861520 0.7321813657444706 -0.003545526950779039
18911024 0.7324588590401052 -0.003410420717182098
18960528 0.732177456239734 -0.0032987454572919964
19010032 0.731957762827283 -0.0033012664892821744
19059536 0.7322582534124721 -0.003375137023584875
19109040 0.7319809755089344 -0.0035926590611213135
19158544 0.7320329889933516 -0.003472824753311663
19208048 0.7322635271599426 -0.0035900157378212193
19257552 0.7320383805660429 -0.0036945521497396563
19307056 0.7320375232078663 -0.003477720247262412
19356560 0.7323450005975886 -0.003368259452934149
19406064 0.7321946595936368 -0.0035221735118790847
19455568 0.7321463108655017 -0.0037531177585707247
19505072 0.7322386754026573 -0.0037650931744610157
19554576 0.7319383391557451 -0.00367724192209434
19604080 0.7321449804620876 -0.0034544024571856254
19653584 0.732281690774891 -0.003808739011080966
19703088 0.7319764472348258 -0.0034362767834399542
19752592 0.7321113907629944 -0.0033120593769189748
